#-----------------------------------------------------------
# Vivado v2019.1 (64-bit)
# SW Build 2552052 on Fri May 24 14:49:42 MDT 2019
# IP Build 2548770 on Fri May 24 18:01:18 MDT 2019
# Start of session at: Fri Jun  2 22:55:52 2023
# Process ID: 4636
# Current directory: C:/Users/hjh09/Desktop/project/spi_test/prj
# Command line: vivado.exe -gui_launcher_event rodinguilauncherevent6372 C:\Users\hjh09\Desktop\project\spi_test\prj\top.xpr
# Log file: C:/Users/hjh09/Desktop/project/spi_test/prj/vivado.log
# Journal file: C:/Users/hjh09/Desktop/project/spi_test/prj\vivado.jou
#-----------------------------------------------------------
start_gui
open_project C:/Users/hjh09/Desktop/project/spi_test/prj/top.xpr
Scanning sources...
Finished scanning sources
INFO: [IP_Flow 19-234] Refreshing IP repositories
INFO: [IP_Flow 19-1704] No user IP repositories specified
INFO: [IP_Flow 19-2313] Loaded Vivado IP repository 'C:/Software/Xilinx/Vivado/2019.1/data/ip'.
update_compile_order -fileset sources_1
set addr 8
8
set address [format "0x%08X" $addr]
0x00000008
open_hw
connect_hw_server
INFO: [Labtools 27-2285] Connecting to hw_server url TCP:localhost:3121
INFO: [Labtools 27-2222] Launching hw_server...
INFO: [Labtools 27-2221] Launch Output:

****** Xilinx hw_server v2019.1
  **** Build date : May 24 2019 at 15:13:31
    ** Copyright 1986-2019 Xilinx, Inc. All Rights Reserved.


open_hw_target
INFO: [Labtoolstcl 44-466] Opening hw_target localhost:3121/xilinx_tcf/Digilent/210512180081
set_property PROGRAM.FILE {C:/Users/hjh09/Desktop/project/spi_test/prj/top.runs/impl_1/top.bit} [get_hw_devices xc7a35t_0]
set_property PROBES.FILE {C:/Users/hjh09/Desktop/project/spi_test/prj/top.runs/impl_1/top.ltx} [get_hw_devices xc7a35t_0]
set_property FULL_PROBES.FILE {C:/Users/hjh09/Desktop/project/spi_test/prj/top.runs/impl_1/top.ltx} [get_hw_devices xc7a35t_0]
current_hw_device [get_hw_devices xc7a35t_0]
refresh_hw_device [lindex [get_hw_devices xc7a35t_0] 0]
INFO: [Labtools 27-1435] Device xc7a35t (JTAG device index = 0) is not programmed (DONE status = 0).
set_property PROBES.FILE {C:/Users/hjh09/Desktop/project/spi_test/prj/top.runs/impl_1/top.ltx} [get_hw_devices xc7a35t_0]
set_property FULL_PROBES.FILE {C:/Users/hjh09/Desktop/project/spi_test/prj/top.runs/impl_1/top.ltx} [get_hw_devices xc7a35t_0]
set_property PROGRAM.FILE {C:/Users/hjh09/Desktop/project/spi_test/prj/top.runs/impl_1/top.bit} [get_hw_devices xc7a35t_0]
program_hw_devices [get_hw_devices xc7a35t_0]
INFO: [Labtools 27-3164] End of startup status: HIGH
refresh_hw_device [lindex [get_hw_devices xc7a35t_0] 0]
INFO: [Labtools 27-2302] Device xc7a35t (JTAG device index = 0) is programmed with a design that has 1 JTAG AXI core(s).
source C:/Users/hjh09/Desktop/project/spi_test/tcl/axi_jtag.tcl
# proc ReadReg {address} {
#     set address [format 0x%08x $address]
#     create_hw_axi_txn rd_txn [get_hw_axis hw_axi_1] -address $address -type read
#     run_hw_axi rd_txn
#     set read_value [lindex [report_hw_axi_txn rd_txn] 1]
#     delete_hw_axi_txn rd_txn
#     return $read_value
# }
# proc WriteReg {address data} {
#     set address [format 0x%08x $address]
#     set data [format 0x%08x $data]
#     create_hw_axi_txn wr_txn [get_hw_axis hw_axi_1] -type write -address $address -data $data
#     run_hw_axi wr_txn
#     set write_value [lindex [report_hw_axi_txn wr_txn] 1]
#     delete_hw_axi_txn wr_txn
#     return $write_value
# }
ReadReg 0x68
INFO: [Labtoolstcl 44-481] READ DATA is: 00000000
00000000
ReadReg 0x60
INFO: [Labtoolstcl 44-481] READ DATA is: 00000180
00000180
source C:/Users/hjh09/Desktop/project/spi_test/tcl/flash_test.tcl
# proc RDID {byte_num} {
#     set num 0
#     # Â§ç‰Ωç tx rx fifo
#     WriteReg 0x60 0x1e6
#     # ÈáäÊîæ fifo Â§ç‰Ωç
#     WriteReg 0x60 0x186
#     # CMD = 9F, ËØ? FLASH ID
#     WriteReg 0x68 0x9f
#     # Ë¶ÅË?ªÂ°ËöÂ∞ë‰∏?Êï∞ÊçÆÂ∞±ÂÜôÂá†‰∏™ dummy Êï∞ÊçÆ
#     while {$num < $byte_num} {
#         WriteReg 0x68 0x00
#         incr num 1
#     }
#     # ÈÄâÊã© 0 ÈÄöÈÅìCS
#     WriteReg 0x70 0x00
#     # ‰ΩøËÉΩ master, ÂºÄÂßãÂèëÊï∞ÊçÆ
#     WriteReg 0x60 0x86
#     # ÈÄâÊã© 0 ÈÄöÈÅìCS ÊãâÈ´ò
#     WriteReg 0x70 0x1
#     # Á¶ÅÁî® master
#     WriteReg 0x60 0x186
# 
#     set num 0
#     set id_data "RDID is "
#     while {$num < $byte_num + 1} {
#         if {$num > 0} {
#             append id_data [format %02x [ReadReg 0x6c 0x00]]
#         }
#         incr num 1
#     }
#     return $id_data
# }
puts $id_data
can't read "id_data": no such variable
RDID 3
INFO: [Labtoolstcl 44-481] WRITE DATA is: 0x000001e6
INFO: [Labtoolstcl 44-481] WRITE DATA is: 0x00000186
INFO: [Labtoolstcl 44-481] WRITE DATA is: 0x0000009f
INFO: [Labtoolstcl 44-481] WRITE DATA is: 0x00000000
INFO: [Labtoolstcl 44-481] WRITE DATA is: 0x00000000
INFO: [Labtoolstcl 44-481] WRITE DATA is: 0x00000000
INFO: [Labtoolstcl 44-481] WRITE DATA is: 0x00000000
INFO: [Labtoolstcl 44-481] WRITE DATA is: 0x00000086
INFO: [Labtoolstcl 44-481] WRITE DATA is: 0x00000001
INFO: [Labtoolstcl 44-481] WRITE DATA is: 0x00000186
wrong # args: should be "ReadReg address"
source C:/Users/hjh09/Desktop/project/spi_test/tcl/flash_test.tcl
# proc RDID {byte_num} {
#     set num 0
#     # Â§ç‰Ωç tx rx fifo
#     WriteReg 0x60 0x1e6
#     # ÈáäÊîæ fifo Â§ç‰Ωç
#     WriteReg 0x60 0x186
#     # CMD = 9F, ËØ? FLASH ID
#     WriteReg 0x68 0x9f
#     # Ë¶ÅË?ªÂ°ËöÂ∞ë‰∏?Êï∞ÊçÆÂ∞±ÂÜôÂá†‰∏™ dummy Êï∞ÊçÆ
#     while {$num < $byte_num} {
#         WriteReg 0x68 0x00
#         incr num 1
#     }
#     # ÈÄâÊã© 0 ÈÄöÈÅìCS
#     WriteReg 0x70 0x00
#     # ‰ΩøËÉΩ master, ÂºÄÂßãÂèëÊï∞ÊçÆ
#     WriteReg 0x60 0x86
#     # ÈÄâÊã© 0 ÈÄöÈÅìCS ÊãâÈ´ò
#     WriteReg 0x70 0x1
#     # Á¶ÅÁî® master
#     WriteReg 0x60 0x186
# 
#     set num 0
#     set id_data "RDID is "
#     while {$num < $byte_num + 1} {
#         if {$num > 0} {
#             append id_data [format %02x [ReadReg 0x6c]]
#         }
#         incr num 1
#     }
#     return $id_data
# }
RDID 3
INFO: [Labtoolstcl 44-481] WRITE DATA is: 0x000001e6
INFO: [Labtoolstcl 44-481] WRITE DATA is: 0x00000186
INFO: [Labtoolstcl 44-481] WRITE DATA is: 0x0000009f
INFO: [Labtoolstcl 44-481] WRITE DATA is: 0x00000000
INFO: [Labtoolstcl 44-481] WRITE DATA is: 0x00000000
INFO: [Labtoolstcl 44-481] WRITE DATA is: 0x00000000
INFO: [Labtoolstcl 44-481] WRITE DATA is: 0x00000000
INFO: [Labtoolstcl 44-481] WRITE DATA is: 0x00000086
INFO: [Labtoolstcl 44-481] WRITE DATA is: 0x00000001
INFO: [Labtoolstcl 44-481] WRITE DATA is: 0x00000186
INFO: [Labtoolstcl 44-481] READ DATA is: 000000ff
expected integer but got "000000ff"
source C:/Users/hjh09/Desktop/project/spi_test/tcl/flash_test.tcl
# proc RDID {byte_num} {
#     set num 0
#     WriteReg 0x40 0xa
#     WriteReg 0x28 0x3fff
#     WriteReg 0x1c 0x80000000
#     # Â§ç‰Ωç tx rx fifo
#     WriteReg 0x60 0x1e6
#     # ÈáäÊîæ fifo Â§ç‰Ωç
#     WriteReg 0x60 0x186
#     # CMD = 9F, ËØ? FLASH ID
#     WriteReg 0x68 0x9f
#     # Ë¶ÅË?ªÂ°ËöÂ∞ë‰∏?Êï∞ÊçÆÂ∞±ÂÜôÂá†‰∏™ dummy Êï∞ÊçÆ
#     while {$num < $byte_num} {
#         WriteReg 0x68 0x00
#         incr num 1
#     }
#     # ÈÄâÊã© 0 ÈÄöÈÅìCS
#     WriteReg 0x70 0x00
#     # ‰ΩøËÉΩ master, ÂºÄÂßãÂèëÊï∞ÊçÆ
#     WriteReg 0x60 0x86
#     # ÈÄâÊã© 0 ÈÄöÈÅìCS ÊãâÈ´ò
#     WriteReg 0x70 0x1
#     # Á¶ÅÁî® master
#     WriteReg 0x60 0x186
# 
#     set num 0
#     set id_data "RDID is "
#     while {$num < $byte_num + 1} {
#         if {$num > 0} {
#             append id_data [format %02x [ReadReg 0x6c]]
#         }
#         incr num 1
#     }
#     return $id_data
# }
RDID 3
INFO: [Labtoolstcl 44-481] WRITE DATA is: 0x0000000a
INFO: [Labtoolstcl 44-481] WRITE DATA is: 0x00003fff
INFO: [Labtoolstcl 44-481] WRITE DATA is: 0x80000000
INFO: [Labtoolstcl 44-481] WRITE DATA is: 0x000001e6
INFO: [Labtoolstcl 44-481] WRITE DATA is: 0x00000186
INFO: [Labtoolstcl 44-481] WRITE DATA is: 0x0000009f
INFO: [Labtoolstcl 44-481] WRITE DATA is: 0x00000000
INFO: [Labtoolstcl 44-481] WRITE DATA is: 0x00000000
INFO: [Labtoolstcl 44-481] WRITE DATA is: 0x00000000
INFO: [Labtoolstcl 44-481] WRITE DATA is: 0x00000000
INFO: [Labtoolstcl 44-481] WRITE DATA is: 0x00000086
INFO: [Labtoolstcl 44-481] WRITE DATA is: 0x00000001
INFO: [Labtoolstcl 44-481] WRITE DATA is: 0x00000186
INFO: [Labtoolstcl 44-481] READ DATA is: 000000ff
expected integer but got "000000ff"
ReadReg 0x6c
INFO: [Labtoolstcl 44-481] READ DATA is: 00000020
00000020
expr {0xFF & [ReadReg 0x6c]}
INFO: [Labtoolstcl 44-481] READ DATA is: 000000ba
can't use non-numeric string as operand of "&"
source C:/Users/hjh09/Desktop/project/spi_test/tcl/flash_test.tcl
# proc RDID {byte_num} {
#     set num 0
#     WriteReg 0x40 0xa
#     WriteReg 0x28 0x3fff
#     WriteReg 0x1c 0x80000000
#     # Â§ç‰Ωç tx rx fifo
#     WriteReg 0x60 0x1e6
#     # ÈáäÊîæ fifo Â§ç‰Ωç
#     WriteReg 0x60 0x186
#     # CMD = 9F, ËØ? FLASH ID
#     WriteReg 0x68 0x9f
#     # Ë¶ÅË?ªÂ°ËöÂ∞ë‰∏?Êï∞ÊçÆÂ∞±ÂÜôÂá†‰∏™ dummy Êï∞ÊçÆ
#     while {$num < $byte_num} {
#         WriteReg 0x68 0x00
#         incr num 1
#     }
#     # ÈÄâÊã© 0 ÈÄöÈÅìCS
#     WriteReg 0x70 0x00
#     # ‰ΩøËÉΩ master, ÂºÄÂßãÂèëÊï∞ÊçÆ
#     WriteReg 0x60 0x86
#     # ÈÄâÊã© 0 ÈÄöÈÅìCS ÊãâÈ´ò
#     WriteReg 0x70 0x1
#     # Á¶ÅÁî® master
#     WriteReg 0x60 0x186
# 
#     set num 0
#     set id_data "RDID is "
#     while {$num < $byte_num + 1} {
#         if {$num > 0} {
#             append id_data [ReadReg 0x6c]
#         }
#         incr num 1
#     }
#     return $id_data
# }
RDID 3
INFO: [Labtoolstcl 44-481] WRITE DATA is: 0x0000000a
INFO: [Labtoolstcl 44-481] WRITE DATA is: 0x00003fff
INFO: [Labtoolstcl 44-481] WRITE DATA is: 0x80000000
INFO: [Labtoolstcl 44-481] WRITE DATA is: 0x000001e6
INFO: [Labtoolstcl 44-481] WRITE DATA is: 0x00000186
INFO: [Labtoolstcl 44-481] WRITE DATA is: 0x0000009f
INFO: [Labtoolstcl 44-481] WRITE DATA is: 0x00000000
INFO: [Labtoolstcl 44-481] WRITE DATA is: 0x00000000
INFO: [Labtoolstcl 44-481] WRITE DATA is: 0x00000000
INFO: [Labtoolstcl 44-481] WRITE DATA is: 0x00000000
INFO: [Labtoolstcl 44-481] WRITE DATA is: 0x00000086
INFO: [Labtoolstcl 44-481] WRITE DATA is: 0x00000001
INFO: [Labtoolstcl 44-481] WRITE DATA is: 0x00000186
INFO: [Labtoolstcl 44-481] READ DATA is: 000000ff
INFO: [Labtoolstcl 44-481] READ DATA is: 00000020
INFO: [Labtoolstcl 44-481] READ DATA is: 000000ba
RDID is 000000ff00000020000000ba
source C:/Users/hjh09/Desktop/project/spi_test/tcl/flash_test.tcl
# proc RDID {byte_num} {
#     set num 0
#     WriteReg 0x40 0xa
#     WriteReg 0x28 0x3fff
#     WriteReg 0x1c 0x80000000
#     # Â§ç‰Ωç tx rx fifo
#     WriteReg 0x60 0x1e6
#     # ÈáäÊîæ fifo Â§ç‰Ωç
#     WriteReg 0x60 0x186
#     # CMD = 9F, ËØ? FLASH ID
#     WriteReg 0x68 0x9f
#     # Ë¶ÅË?ªÂ°ËöÂ∞ë‰∏?Êï∞ÊçÆÂ∞±ÂÜôÂá†‰∏™ dummy Êï∞ÊçÆ
#     while {$num < $byte_num} {
#         WriteReg 0x68 0x00
#         incr num 1
#     }
#     # ÈÄâÊã© 0 ÈÄöÈÅìCS
#     WriteReg 0x70 0x00
#     # ‰ΩøËÉΩ master, ÂºÄÂßãÂèëÊï∞ÊçÆ
#     WriteReg 0x60 0x86
#     # ÈÄâÊã© 0 ÈÄöÈÅìCS ÊãâÈ´ò
#     WriteReg 0x70 0x1
#     # Á¶ÅÁî® master
#     WriteReg 0x60 0x186
# 
#     set num 0
#     set id_data "RDID is "
#     while {$num < $byte_num + 1} {
#         if {$num > 0} {
#             append id_data [ReadReg 0x6c]
#             puts $id_data
#         }
#         incr num 1
#     }
#     return $id_data
# }
RDID 3
INFO: [Labtoolstcl 44-481] WRITE DATA is: 0x0000000a
INFO: [Labtoolstcl 44-481] WRITE DATA is: 0x00003fff
INFO: [Labtoolstcl 44-481] WRITE DATA is: 0x80000000
INFO: [Labtoolstcl 44-481] WRITE DATA is: 0x000001e6
INFO: [Labtoolstcl 44-481] WRITE DATA is: 0x00000186
INFO: [Labtoolstcl 44-481] WRITE DATA is: 0x0000009f
INFO: [Labtoolstcl 44-481] WRITE DATA is: 0x00000000
INFO: [Labtoolstcl 44-481] WRITE DATA is: 0x00000000
INFO: [Labtoolstcl 44-481] WRITE DATA is: 0x00000000
INFO: [Labtoolstcl 44-481] WRITE DATA is: 0x00000000
INFO: [Labtoolstcl 44-481] WRITE DATA is: 0x00000086
INFO: [Labtoolstcl 44-481] WRITE DATA is: 0x00000001
INFO: [Labtoolstcl 44-481] WRITE DATA is: 0x00000186
INFO: [Labtoolstcl 44-481] READ DATA is: 000000ff
RDID is 000000ff
INFO: [Labtoolstcl 44-481] READ DATA is: 00000020
RDID is 000000ff00000020
INFO: [Labtoolstcl 44-481] READ DATA is: 000000ba
RDID is 000000ff00000020000000ba
RDID is 000000ff00000020000000ba
source C:/Users/hjh09/Desktop/project/spi_test/tcl/flash_test.tcl
# proc RDID {byte_num} {
#     set num 0
#     WriteReg 0x40 0xa
#     WriteReg 0x28 0x3fff
#     WriteReg 0x1c 0x80000000
#     # Â§ç‰Ωç tx rx fifo
#     WriteReg 0x60 0x1e6
#     # ÈáäÊîæ fifo Â§ç‰Ωç
#     WriteReg 0x60 0x186
#     # CMD = 9F, ËØ? FLASH ID
#     WriteReg 0x68 0x9f
#     # Ë¶ÅË?ªÂ°ËöÂ∞ë‰∏?Êï∞ÊçÆÂ∞±ÂÜôÂá†‰∏™ dummy Êï∞ÊçÆ
#     while {$num < $byte_num} {
#         WriteReg 0x68 0x00
#         incr num 1
#     }
#     # ÈÄâÊã© 0 ÈÄöÈÅìCS
#     WriteReg 0x70 0x00
#     # ‰ΩøËÉΩ master, ÂºÄÂßãÂèëÊï∞ÊçÆ
#     WriteReg 0x60 0x86
#     # ÈÄâÊã© 0 ÈÄöÈÅìCS ÊãâÈ´ò
#     WriteReg 0x70 0x1
#     # Á¶ÅÁî® master
#     WriteReg 0x60 0x186
# 
#     set num 0
#     set id_data "RDID is "
#     while {$num < $byte_num + 1} {
#         puts $num
#         if {$num > 0} {
#             append id_data [ReadReg 0x6c]
#             puts $id_data
#         }
#         incr num 1
#     }
#     return $id_data
# }
RDID 3
INFO: [Labtoolstcl 44-481] WRITE DATA is: 0x0000000a
INFO: [Labtoolstcl 44-481] WRITE DATA is: 0x00003fff
INFO: [Labtoolstcl 44-481] WRITE DATA is: 0x80000000
INFO: [Labtoolstcl 44-481] WRITE DATA is: 0x000001e6
INFO: [Labtoolstcl 44-481] WRITE DATA is: 0x00000186
INFO: [Labtoolstcl 44-481] WRITE DATA is: 0x0000009f
INFO: [Labtoolstcl 44-481] WRITE DATA is: 0x00000000
INFO: [Labtoolstcl 44-481] WRITE DATA is: 0x00000000
INFO: [Labtoolstcl 44-481] WRITE DATA is: 0x00000000
INFO: [Labtoolstcl 44-481] WRITE DATA is: 0x00000000
INFO: [Labtoolstcl 44-481] WRITE DATA is: 0x00000086
INFO: [Labtoolstcl 44-481] WRITE DATA is: 0x00000001
INFO: [Labtoolstcl 44-481] WRITE DATA is: 0x00000186
0
1
INFO: [Labtoolstcl 44-481] READ DATA is: 000000ff
RDID is 000000ff
2
INFO: [Labtoolstcl 44-481] READ DATA is: 00000020
RDID is 000000ff00000020
3
INFO: [Labtoolstcl 44-481] READ DATA is: 000000ba
RDID is 000000ff00000020000000ba
RDID is 000000ff00000020000000ba
source C:/Users/hjh09/Desktop/project/spi_test/tcl/flash_test.tcl
# proc RDID {byte_num} {
#     set num 0
#     WriteReg 0x40 0xa
#     WriteReg 0x28 0x3fff
#     WriteReg 0x1c 0x80000000
#     # Â§ç‰Ωç tx rx fifo
#     WriteReg 0x60 0x1e6
#     # ÈáäÊîæ fifo Â§ç‰Ωç
#     WriteReg 0x60 0x186
#     # CMD = 9F, ËØ? FLASH ID
#     WriteReg 0x68 0x9f
#     # Ë¶ÅË?ªÂ°ËöÂ∞ë‰∏?Êï∞ÊçÆÂ∞±ÂÜôÂá†‰∏™ dummy Êï∞ÊçÆ
#     while {$num < $byte_num} {
#         WriteReg 0x68 0x00
#         incr num 1
#     }
#     # ÈÄâÊã© 0 ÈÄöÈÅìCS
#     WriteReg 0x70 0x00
#     # ‰ΩøËÉΩ master, ÂºÄÂßãÂèëÊï∞ÊçÆ
#     WriteReg 0x60 0x86
#     # ÈÄâÊã© 0 ÈÄöÈÅìCS ÊãâÈ´ò
#     WriteReg 0x70 0x1
#     # Á¶ÅÁî® master
#     WriteReg 0x60 0x186
# 
#     set num 0
#     set id_data "RDID is "
#     while {[ReadReg 0x78] /= 0} {}
#     while {$num < $byte_num + 1} {
#         puts $num
#         if {$num > 0} {
#             append id_data [ReadReg 0x6c]
#             puts $id_data
#         }
#         incr num 1
#     }
#     return $id_data
# }
RDID 3
INFO: [Labtoolstcl 44-481] WRITE DATA is: 0x0000000a
INFO: [Labtoolstcl 44-481] WRITE DATA is: 0x00003fff
INFO: [Labtoolstcl 44-481] WRITE DATA is: 0x80000000
INFO: [Labtoolstcl 44-481] WRITE DATA is: 0x000001e6
INFO: [Labtoolstcl 44-481] WRITE DATA is: 0x00000186
INFO: [Labtoolstcl 44-481] WRITE DATA is: 0x0000009f
INFO: [Labtoolstcl 44-481] WRITE DATA is: 0x00000000
INFO: [Labtoolstcl 44-481] WRITE DATA is: 0x00000000
INFO: [Labtoolstcl 44-481] WRITE DATA is: 0x00000000
INFO: [Labtoolstcl 44-481] WRITE DATA is: 0x00000000
INFO: [Labtoolstcl 44-481] WRITE DATA is: 0x00000086
INFO: [Labtoolstcl 44-481] WRITE DATA is: 0x00000001
INFO: [Labtoolstcl 44-481] WRITE DATA is: 0x00000186
INFO: [Common 17-14] Message 'Labtoolstcl 44-481' appears 100 times and further instances of the messages will be disabled. Use the Tcl command set_msg_config to change the current settings.
incomplete operator "="
in expression "[ReadReg 0x78] /= 0"
source C:/Users/hjh09/Desktop/project/spi_test/tcl/flash_test.tcl
# proc RDID {byte_num} {
#     set num 0
#     WriteReg 0x40 0xa
#     WriteReg 0x28 0x3fff
#     WriteReg 0x1c 0x80000000
#     # Â§ç‰Ωç tx rx fifo
#     WriteReg 0x60 0x1e6
#     # ÈáäÊîæ fifo Â§ç‰Ωç
#     WriteReg 0x60 0x186
#     # CMD = 9F, ËØ? FLASH ID
#     WriteReg 0x68 0x9f
#     # Ë¶ÅË?ªÂ°ËöÂ∞ë‰∏?Êï∞ÊçÆÂ∞±ÂÜôÂá†‰∏™ dummy Êï∞ÊçÆ
#     while {$num < $byte_num} {
#         WriteReg 0x68 0x00
#         incr num 1
#     }
#     # ÈÄâÊã© 0 ÈÄöÈÅìCS
#     WriteReg 0x70 0x00
#     # ‰ΩøËÉΩ master, ÂºÄÂßãÂèëÊï∞ÊçÆ
#     WriteReg 0x60 0x86
#     # ÈÄâÊã© 0 ÈÄöÈÅìCS ÊãâÈ´ò
#     WriteReg 0x70 0x1
#     # Á¶ÅÁî® master
#     WriteReg 0x60 0x186
# 
#     set num 0
#     set id_data "RDID is "
#     while {[ReadReg 0x78] != 0} {}
#     while {$num < $byte_num + 1} {
#         puts $num
#         if {$num > 0} {
#             append id_data [ReadReg 0x6c]
#             puts $id_data
#         }
#         incr num 1
#     }
#     return $id_data
# }
RDID 3
INFO: [Common 17-41] Interrupt caught. Command should exit soon.
INFO: [Common 17-344] 'run_hw_axi' was cancelled
ReadReg 0x78
ERROR: [Labtools 27-1991] Can not create a second hw_axi_txn object with the same name [rd_txn].  Use the -force option to override this error check.
delete_hw_axi_txn rd_txn
ReadReg 0x78
00000003
source C:/Users/hjh09/Desktop/project/spi_test/tcl/flash_test.tcl
# proc RDID {byte_num} {
#     set num 0
#     WriteReg 0x40 0xa
#     WriteReg 0x28 0x3fff
#     WriteReg 0x1c 0x80000000
#     # Â§ç‰Ωç tx rx fifo
#     WriteReg 0x60 0x1e6
#     # ÈáäÊîæ fifo Â§ç‰Ωç
#     WriteReg 0x60 0x186
#     # CMD = 9F, ËØ? FLASH ID
#     WriteReg 0x68 0x9f
#     # Ë¶ÅË?ªÂ°ËöÂ∞ë‰∏?Êï∞ÊçÆÂ∞±ÂÜôÂá†‰∏™ dummy Êï∞ÊçÆ
#     while {$num < $byte_num} {
#         WriteReg 0x68 0x00
#         incr num 1
#     }
#     # ÈÄâÊã© 0 ÈÄöÈÅìCS
#     WriteReg 0x70 0x00
#     # ‰ΩøËÉΩ master, ÂºÄÂßãÂèëÊï∞ÊçÆ
#     WriteReg 0x60 0x86
#     # ÈÄâÊã© 0 ÈÄöÈÅìCS ÊãâÈ´ò
#     WriteReg 0x70 0x1
#     # Á¶ÅÁî® master
#     WriteReg 0x60 0x186
# 
#     set num 0
#     set id_data "RDID is "
#     while {[ReadReg 0x78] == 0x00000000} {}
#     while {$num < $byte_num + 1} {
#         puts $num
#         if {$num > 0} {
#             append id_data [ReadReg 0x6c]
#             puts $id_data
#         }
#         incr num 1
#     }
#     return $id_data
# }
RDID 3
0
1
RDID is 000000ff
2
RDID is 000000ff00000020
3
RDID is 000000ff00000020000000ba
RDID is 000000ff00000020000000ba
ReadReg 0x78
00000000
ReadReg 0x6c
00000018
source C:/Users/hjh09/Desktop/project/spi_test/tcl/flash_test.tcl
# proc RDID {byte_num} {
#     set num 0
#     WriteReg 0x40 0xa
#     WriteReg 0x28 0x3fff
#     WriteReg 0x1c 0x80000000
#     # Â§ç‰Ωç tx rx fifo
#     WriteReg 0x60 0x1e6
#     # ÈáäÊîæ fifo Â§ç‰Ωç
#     WriteReg 0x60 0x186
#     # CMD = 9F, ËØ? FLASH ID
#     WriteReg 0x68 0x9f
#     # Ë¶ÅË?ªÂ°ËöÂ∞ë‰∏?Êï∞ÊçÆÂ∞±ÂÜôÂá†‰∏™ dummy Êï∞ÊçÆ
#     while {$num < $byte_num} {
#         WriteReg 0x68 0x00
#         incr num 1
#     }
#     # ÈÄâÊã© 0 ÈÄöÈÅìCS
#     WriteReg 0x70 0x00
#     # ‰ΩøËÉΩ master, ÂºÄÂßãÂèëÊï∞ÊçÆ
#     WriteReg 0x60 0x86
#     # ÈÄâÊã© 0 ÈÄöÈÅìCS ÊãâÈ´ò
#     WriteReg 0x70 0x1
#     # Á¶ÅÁî® master
#     WriteReg 0x60 0x186
# 
#     set num 0
#     set id_data "RDID is "
#     while {[ReadReg 0x78] == 0x00000000} {}
#     while {$num < $byte_num + 2} {
#         puts $num
#         if {$num > 1} {
#             append id_data [ReadReg 0x6c]
#             puts $id_data
#         }
#         incr num 1
#     }
#     return $id_data
# }
RDID 3
0
1
2
RDID is 000000ff
3
RDID is 000000ff00000020
4
RDID is 000000ff00000020000000ba
RDID is 000000ff00000020000000ba
source C:/Users/hjh09/Desktop/project/spi_test/tcl/flash_test.tcl
# proc RDID {byte_num} {
#     set num 0
#     WriteReg 0x40 0xa
#     WriteReg 0x28 0x3fff
#     WriteReg 0x1c 0x80000000
#     # Â§ç‰Ωç tx rx fifo
#     WriteReg 0x60 0x1e6
#     # ÈáäÊîæ fifo Â§ç‰Ωç
#     WriteReg 0x60 0x186
#     # CMD = 9F, ËØ? FLASH ID
#     WriteReg 0x68 0x9f
#     # Ë¶ÅË?ªÂ°ËöÂ∞ë‰∏?Êï∞ÊçÆÂ∞±ÂÜôÂá†‰∏™ dummy Êï∞ÊçÆ
#     while {$num < $byte_num} {
#         WriteReg 0x68 0x00
#         incr num 1
#     }
#     # ÈÄâÊã© 0 ÈÄöÈÅìCS
#     WriteReg 0x70 0x00
#     # ‰ΩøËÉΩ master, ÂºÄÂßãÂèëÊï∞ÊçÆ
#     WriteReg 0x60 0x86
#     # ÈÄâÊã© 0 ÈÄöÈÅìCS ÊãâÈ´ò
#     WriteReg 0x70 0x1
#     # Á¶ÅÁî® master
#     WriteReg 0x60 0x186
# 
#     set num 0
#     set id_data "RDID is "
#     while {[ReadReg 0x78] != 0x00000003} {}
#     while {$num < $byte_num + 2} {
#         puts $num
#         if {$num > 1} {
#             append id_data [ReadReg 0x6c]
#             puts $id_data
#         }
#         incr num 1
#     }
#     return $id_data
# }
RDID 3
0
1
2
RDID is 000000ff
3
RDID is 000000ff00000020
4
RDID is 000000ff00000020000000ba
RDID is 000000ff00000020000000ba
source C:/Users/hjh09/Desktop/project/spi_test/tcl/flash_test.tcl
# proc RDID {byte_num} {
#     set num 0
#     WriteReg 0x40 0xa
#     WriteReg 0x28 0x3fff
#     WriteReg 0x1c 0x80000000
#     # Â§ç‰Ωç tx rx fifo
#     WriteReg 0x60 0x1e6
#     # ÈáäÊîæ fifo Â§ç‰Ωç
#     WriteReg 0x60 0x186
#     # CMD = 9F, ËØ? FLASH ID
#     WriteReg 0x68 0x9f
#     # Ë¶ÅË?ªÂ°ËöÂ∞ë‰∏?Êï∞ÊçÆÂ∞±ÂÜôÂá†‰∏™ dummy Êï∞ÊçÆ
#     while {$num < $byte_num} {
#         WriteReg 0x68 0x00
#         incr num 1
#     }
#     # ÈÄâÊã© 0 ÈÄöÈÅìCS
#     WriteReg 0x70 0x00
#     # ‰ΩøËÉΩ master, ÂºÄÂßãÂèëÊï∞ÊçÆ
#     WriteReg 0x60 0x86
#     # ÈÄâÊã© 0 ÈÄöÈÅìCS ÊãâÈ´ò
#     WriteReg 0x70 0x1
#     # Á¶ÅÁî® master
#     WriteReg 0x60 0x186
# 
#     set num 0
#     set id_data "RDID is "
#     while {$num < $byte_num + 3} {
#         puts $num
#         if {$num > 2} {
#             append id_data [ReadReg 0x6c]
#             puts $id_data
#         }
#         incr num 1
#     }
#     return $id_data
# }
RDID 3
0
1
2
3
RDID is 000000ff
4
RDID is 000000ff00000020
5
RDID is 000000ff00000020000000ba
RDID is 000000ff00000020000000ba
source C:/Users/hjh09/Desktop/project/spi_test/tcl/flash_test.tcl
# proc RDID {byte_num} {
#     set num 0
#     WriteReg 0x40 0xa
#     WriteReg 0x28 0x3fff
#     WriteReg 0x1c 0x80000000
#     # Â§ç‰Ωç tx rx fifo
#     WriteReg 0x60 0x1e6
#     # ÈáäÊîæ fifo Â§ç‰Ωç
#     WriteReg 0x60 0x186
#     # CMD = 9F, ËØ? FLASH ID
#     WriteReg 0x68 0x9f
#     # Ë¶ÅË?ªÂ°ËöÂ∞ë‰∏?Êï∞ÊçÆÂ∞±ÂÜôÂá†‰∏™ dummy Êï∞ÊçÆ
#     while {$num < $byte_num} {
#         WriteReg 0x68 0x00
#         incr num 1
#     }
#     # ÈÄâÊã© 0 ÈÄöÈÅìCS
#     WriteReg 0x70 0x00
#     # ‰ΩøËÉΩ master, ÂºÄÂßãÂèëÊï∞ÊçÆ
#     WriteReg 0x60 0x86
#     # ÈÄâÊã© 0 ÈÄöÈÅìCS ÊãâÈ´ò
#     WriteReg 0x70 0x1
#     # Á¶ÅÁî® master
#     WriteReg 0x60 0x186
# 
#     set num 0
#     set id_data "RDID is "
#     while {$num < $byte_num + 11} {
#         puts $num
#         if {$num > 10} {
#             append id_data [ReadReg 0x6c]
#             puts $id_data
#         }
#         incr num 1
#     }
#     return $id_data
# }
RDID 3
0
1
2
3
4
5
6
7
8
9
10
11
RDID is 000000ff
12
RDID is 000000ff00000020
13
RDID is 000000ff00000020000000ba
RDID is 000000ff00000020000000ba
source C:/Users/hjh09/Desktop/project/spi_test/tcl/flash_test.tcl
# proc RDID {byte_num} {
#     set num 0
#     WriteReg 0x40 0xa
#     WriteReg 0x28 0x3fff
#     WriteReg 0x1c 0x80000000
#     # Â§ç‰Ωç tx rx fifo
#     WriteReg 0x60 0x1e6
#     # ÈáäÊîæ fifo Â§ç‰Ωç
#     WriteReg 0x60 0x186
#     # CMD = 9F, ËØ? FLASH ID
#     WriteReg 0x68 0x9f
#     # Ë¶ÅË?ªÂ°ËöÂ∞ë‰∏?Êï∞ÊçÆÂ∞±ÂÜôÂá†‰∏™ dummy Êï∞ÊçÆ
#     while {$num < $byte_num} {
#         WriteReg 0x68 0x00
#         incr num 1
#     }
#     # ÈÄâÊã© 0 ÈÄöÈÅìCS
#     WriteReg 0x70 0x00
#     # ‰ΩøËÉΩ master, ÂºÄÂßãÂèëÊï∞ÊçÆ
#     WriteReg 0x60 0x86
#     # ÈÄâÊã© 0 ÈÄöÈÅìCS ÊãâÈ´ò
#     WriteReg 0x70 0x1
#     # Á¶ÅÁî® master
#     WriteReg 0x60 0x186
# 
#     set num 0
#     set id_data "RDID is "
#     while {$num < $byte_num + 1} {
#         puts $num
#         if {$num >= 1} {
#             append id_data [ReadReg 0x6c]
#             puts $id_data
#         } else {
#             ReadReg 0x6c
#         }
#         incr num 1
#     }
#     return $id_data
# }
RDID 3
0
1
RDID is 00000020
2
RDID is 00000020000000ba
3
RDID is 00000020000000ba00000018
RDID is 00000020000000ba00000018
ReadReg 0x78
00000000
ReadReg 0x6c
00000018
ReadReg 0x6c
00000018
ReadReg 0x6c
00000018
expr {int(ReadReg 0x6c)}
invalid bareword "ReadReg"
in expression "int(ReadReg 0x6c)";
should be "$ReadReg" or "{ReadReg}" or "ReadReg(...)" or ...
expr {int[ReadReg 0x6c]}
invalid bareword "int"
in expression "int[ReadReg 0x6c]";
should be "$int" or "{int}" or "int(...)" or ...
expr {[ReadReg 0x6c]}
00000018
expr {0xff & [ReadReg 0x6c]}
can't use invalid octal number as operand of "&"
int([ReadReg 0x6c])
invalid command name "int(00000018)"
expr {int([ReadReg 0x6c])}
expected number but got "00000018" (looks like invalid octal number)
string index [ReadReg 0x6c] -1
string length [ReadReg 0x6c]
8
string index [ReadReg 0x6c] end-1
1
string index [ReadReg 0x6c] end
8
string range [ReadReg 0x6c] end-1 end
18
source C:/Users/hjh09/Desktop/project/spi_test/tcl/flash_test.tcl
# proc RDID {byte_num} {
#     set num 0
#     WriteReg 0x40 0xa
#     WriteReg 0x28 0x3fff
#     WriteReg 0x1c 0x80000000
#     # Â§ç‰Ωç tx rx fifo
#     WriteReg 0x60 0x1e6
#     # ÈáäÊîæ fifo Â§ç‰Ωç
#     WriteReg 0x60 0x186
#     # CMD = 9F, ËØ? FLASH ID
#     WriteReg 0x68 0x9f
#     # Ë¶ÅË?ªÂ°ËöÂ∞ë‰∏?Êï∞ÊçÆÂ∞±ÂÜôÂá†‰∏™ dummy Êï∞ÊçÆ
#     while {$num < $byte_num} {
#         WriteReg 0x68 0x00
#         incr num 1
#     }
#     # ÈÄâÊã© 0 ÈÄöÈÅìCS
#     WriteReg 0x70 0x00
#     # ‰ΩøËÉΩ master, ÂºÄÂßãÂèëÊï∞ÊçÆ
#     WriteReg 0x60 0x86
#     # ÈÄâÊã© 0 ÈÄöÈÅìCS ÊãâÈ´ò
#     WriteReg 0x70 0x1
#     # Á¶ÅÁî® master
#     WriteReg 0x60 0x186
# 
#     set num 0
#     set id_data "RDID is "
#     while {$num < $byte_num + 1} {
#         if {$num >= 1} {
#             append id_data [string range [ReadReg 0x6c] end-1 end]
#         } else {
#             ReadReg 0x6c
#         }
#         incr num 1
#     }
#     return $id_data
# }
RDID 3
RDID is 20ba18
RDID 4
RDID is 20ba1810
ERROR: [Labtoolstcl 44-513] HW Target shutdown. Closing target: localhost:3121/xilinx_tcf/Digilent/210512180081
expr {0x102030 >> 16}
16
expr {0x102030 & 0xff0000}
1048576
expr {0x102030 >> 16}
16
expr {0x102030 % expr(2**16)}
invalid command name "tcl::mathfunc::expr"
expr {0x102030 % (2**16)}
8240
expr {0x102030 % (expr(2**16))}
invalid command name "tcl::mathfunc::expr"
expr {0x102030 % {expr(2**16)}}
can't use non-numeric string as operand of "%"
expr {0x102030 % pow(2,16)}
can't use floating-point value as operand of "%"
expr {0x102030 % expr(pow(2,16))}
invalid command name "tcl::mathfunc::expr"
expr {0x102030 >> 16}
16
expr {0x102030 >> 8}
4128
expr {fmod(expr (0x102030 >> 8),256)}
invalid command name "tcl::mathfunc::expr"
expr {fmod(0x1020,256)}
32.0
expr {0x1020%256)}
unbalanced close paren
in expression "0x1020%256)"
expr {0x1020 % 256}
32
expr {0x102030 % 256}
48
expr {0x102030 % expr{2**16}}
invalid bareword "expr"
in expression "0x102030 % expr{2**16}";
should be "$expr" or "{expr}" or "expr(...)" or ...
expr {0x102030 % expr(2**16)}
invalid command name "tcl::mathfunc::expr"
expr {0x102030 % [expr(2**16)]}
invalid command name "expr(2**16)"
2**16
[2**16]
expr {2**16}
65536
expr (0x102030 % expr{2**16})
invalid bareword "expr"
in expression "(0x102030 % expr{2**16})";
should be "$expr" or "{expr}" or "expr(...)" or ...
expr (0x102030 % expr(2**16))
invalid command name "tcl::mathfunc::expr"
expr (0x102030 % (expr(2**16)))
invalid command name "tcl::mathfunc::expr"
expr 0x102030 % (2**16)
8240
expr (0x102030 % (2**16)) >> 8
32
expr (0x102030 % (2**8))
48
INFO: [Labtoolstcl 44-466] Opening hw_target localhost:3121/xilinx_tcf/Digilent/210512180081
INFO: [Labtools 27-1435] Device xc7a35t (JTAG device index = 0) is not programmed (DONE status = 0).
WARNING: [Labtoolstcl 44-129] No matching hw_ila_data was found.
set_property PROBES.FILE {C:/Users/hjh09/Desktop/project/spi_test/prj/top.runs/impl_1/top.ltx} [get_hw_devices xc7a35t_0]
set_property FULL_PROBES.FILE {C:/Users/hjh09/Desktop/project/spi_test/prj/top.runs/impl_1/top.ltx} [get_hw_devices xc7a35t_0]
set_property PROGRAM.FILE {C:/Users/hjh09/Desktop/project/spi_test/prj/top.runs/impl_1/top.bit} [get_hw_devices xc7a35t_0]
program_hw_devices [get_hw_devices xc7a35t_0]
INFO: [Labtools 27-3164] End of startup status: HIGH
refresh_hw_device [lindex [get_hw_devices xc7a35t_0] 0]
INFO: [Labtools 27-2302] Device xc7a35t (JTAG device index = 0) is programmed with a design that has 1 JTAG AXI core(s).
source C:/Users/hjh09/Desktop/project/spi_test/tcl/axi_jtag.tcl
# proc ReadReg {address} {
#     set address [format 0x%08x $address]
#     create_hw_axi_txn rd_txn [get_hw_axis hw_axi_1] -address $address -type read
#     run_hw_axi rd_txn
#     set read_value [lindex [report_hw_axi_txn rd_txn] 1]
#     delete_hw_axi_txn rd_txn
#     return $read_value
# }
# proc WriteReg {address data} {
#     set address [format 0x%08x $address]
#     set data [format 0x%08x $data]
#     create_hw_axi_txn wr_txn [get_hw_axis hw_axi_1] -type write -address $address -data $data
#     run_hw_axi wr_txn
#     set write_value [lindex [report_hw_axi_txn wr_txn] 1]
#     delete_hw_axi_txn wr_txn
#     return $write_value
# }
# proc PP {address} {
#     # Write Address
#     puts [expr ($address >> 16)]
#     puts [expr ($address % (2**16)) >> 8]
#     puts [expr ($address % (2**8))]
#     set address [expr {$address + 128}]
#     puts [expr ($address >> 16)]
#     puts [expr ($address % (2**16)) >> 8]
#     puts [expr ($address % (2**8))]
# }
# PP 0x102030
16
32
48
16
32
176
# PP 1056816
16
32
48
16
32
176
source C:/Users/hjh09/Desktop/project/spi_test/tcl/flash_test.tcl
# proc RDID {byte_num} {
#     WriteReg 0x40 0xa
#     WriteReg 0x28 0x3fff
#     WriteReg 0x1c 0x80000000
#     # Â§ç‰Ωç tx rx fifo
#     WriteReg 0x60 0x1e6
#     # ÈáäÊîæ fifo Â§ç‰Ωç
#     WriteReg 0x60 0x186
#     # CMD = 9F, ËØ? FLASH ID
#     WriteReg 0x68 0x9f
#     # Ë¶ÅË?ªÂ°ËöÂ∞ë‰∏?Êï∞ÊçÆÂ∞±ÂÜôÂá†‰∏™ dummy Êï∞ÊçÆ
#     set num 0
#     while {$num < $byte_num} {
#         WriteReg 0x68 0x00
#         incr num 1
#     }
#     # ÈÄâÊã© 0 ÈÄöÈÅìCS
#     WriteReg 0x70 0x00
#     # ‰ΩøËÉΩ master, ÂºÄÂßãÂèëÊï∞ÊçÆ
#     WriteReg 0x60 0x86
#     # ÈÄâÊã© 0 ÈÄöÈÅìCS ÊãâÈ´ò
#     WriteReg 0x70 0x1
#     # Á¶ÅÁî® master
#     WriteReg 0x60 0x186
# 
#     set num 0
#     set id_data "RDID is "
#     while {$num < $byte_num + 1} {
#         if {$num >= 1} {
#             append id_data [string range [ReadReg 0x6c] end-1 end]
#         } else {
#             ReadReg 0x6c
#         }
#         incr num 1
#     }
#     return $id_data
# }
# proc WREN {} {
#     # Â§ç‰Ωç tx rx fifo
#     WriteReg 0x60 0x1e6
#     # ÈáäÊîæ fifo Â§ç‰Ωç
#     WriteReg 0x60 0x186
#     # CMD = 06, ÂÜô‰ΩøËÉ?
#     WriteReg 0x68 0x06
#     # ÈÄâÊã© 0 ÈÄöÈÅìCS
#     WriteReg 0x70 0x00
#     # ‰ΩøËÉΩ master, ÂºÄÂßãÂèëÊï∞ÊçÆ
#     WriteReg 0x60 0x86
#     # ÈÄâÊã© 0 ÈÄöÈÅìCS ÊãâÈ´ò
#     WriteReg 0x70 0x1
#     # Á¶ÅÁî® master
#     WriteReg 0x60 0x186
# }
# proc SE {Sector_Num} {
#     # Â§ç‰Ωç tx rx fifo
#     WriteReg 0x60 0x1e6
#     # ÈáäÊîæ fifo Â§ç‰Ωç
#     WriteReg 0x60 0x186
#     # CMD = d8, ÊâáÂå∫Êì¶Èô§
#     WriteReg 0x68 0xd8
#     # Write Address
#     WriteReg 0x68 $Sector_Num
#     WriteReg 0x68 0x00
#     WriteReg 0x68 0x00
#     # ÈÄâÊã© 0 ÈÄöÈÅìCS
#     WriteReg 0x70 0x00
#     # ‰ΩøËÉΩ master, ÂºÄÂßãÂèëÊï∞ÊçÆ
#     WriteReg 0x60 0x86
#     # ÈÄâÊã© 0 ÈÄöÈÅìCS ÊãâÈ´ò
#     WriteReg 0x70 0x1
#     # Á¶ÅÁî® master
#     WriteReg 0x60 0x186
# }
# proc BE {} {
#     # Â§ç‰Ωç tx rx fifo
#     WriteReg 0x60 0x1e6
#     # ÈáäÊîæ fifo Â§ç‰Ωç
#     WriteReg 0x60 0x186
#     # CMD = c7, Êï¥ÁâáÊì¶Èô§
#     WriteReg 0x68 0xc7
#     # ÈÄâÊã© 0 ÈÄöÈÅìCS
#     WriteReg 0x70 0x00
#     # ‰ΩøËÉΩ master, ÂºÄÂßãÂèëÊï∞ÊçÆ
#     WriteReg 0x60 0x86
#     # ÈÄâÊã© 0 ÈÄöÈÅìCS ÊãâÈ´ò
#     WriteReg 0x70 0x1
#     # Á¶ÅÁî® master
#     WriteReg 0x60 0x186
# }
# proc PP {address} {
# # ÂÖàÂÜôÂâ? 128 Byte, Âõ†‰∏∫FIFOÊ∑±Â∫¶256, ‰ΩÜÊòØcmd+Âú∞ÂùÄÂç†Áî®4Byte, ÊâÄ‰ª•ÂÆûÈôÖ‰ΩøÁî®‰∏çË∂?256ByteÂè?Áî°ß
#     # Â§ç‰Ωç tx rx fifo
#     WriteReg 0x60 0x1e6
#     # ÈáäÊîæ fifo Â§ç‰Ωç
#     WriteReg 0x60 0x186
#     # CMD = 02, È°µÂÜô
#     WriteReg 0x68 0x02
#     # Write Address
#     WriteReg 0x68 [expr ($address >> 16)]
#     WriteReg 0x68 [expr ($address % (2**16)) >> 8]
#     WriteReg 0x68 [expr ($address % (2**8))]
#     # Write Data
#     set num 0
#     while {$num < 128} {
#         WriteReg 0x68 $num
#         incr num 1
#     }
#     # ÈÄâÊã© 0 ÈÄöÈÅìCS
#     WriteReg 0x70 0x00
#     # ‰ΩøËÉΩ master, ÂºÄÂßãÂèëÊï∞ÊçÆ
#     WriteReg 0x60 0x86
#     # ÈÄâÊã© 0 ÈÄöÈÅìCS ÊãâÈ´ò
#     WriteReg 0x70 0x1
#     # Á¶ÅÁî® master
#     WriteReg 0x60 0x186
# # ÂÜçÂÜôÂê? 128 Byte
#     set address [expr {$address + 128}]
#     # Â§ç‰Ωç tx rx fifo
#     WriteReg 0x60 0x1e6
#     # ÈáäÊîæ fifo Â§ç‰Ωç
#     WriteReg 0x60 0x186
#     # CMD = 02, È°µÂÜô
#     WriteReg 0x68 0x02
#     # Write Address
#     WriteReg 0x68 [expr ($address >> 16)]
#     WriteReg 0x68 [expr ($address % (2**16)) >> 8]
#     WriteReg 0x68 [expr ($address % (2**8))]
#     # Write Data
#     set num 128
#     while {$num < 256} {
#         WriteReg 0x68 $num
#         incr num 1
#     }
#     # ÈÄâÊã© 0 ÈÄöÈÅìCS
#     WriteReg 0x70 0x00
#     # ‰ΩøËÉΩ master, ÂºÄÂßãÂèëÊï∞ÊçÆ
#     WriteReg 0x60 0x86
#     # ÈÄâÊã© 0 ÈÄöÈÅìCS ÊãâÈ´ò
#     WriteReg 0x70 0x1
#     # Á¶ÅÁî® master
#     WriteReg 0x60 0x186
# }
# proc READ {address number} {
#     # Â§ç‰Ωç tx rx fifo
#     WriteReg 0x60 0x1e6
#     # ÈáäÊîæ fifo Â§ç‰Ωç
#     WriteReg 0x60 0x186
#     # CMD = 03, ÊåâÂ≠óËäÇË?ªÊï∞Êç?
#     WriteReg 0x68 0x03
#     # Read Address
#     WriteReg 0x68 [expr ($address >> 16)]
#     WriteReg 0x68 [expr ($address % (2**16)) >> 8]
#     WriteReg 0x68 [expr ($address % (2**8))]
#     # Ë¶ÅË?ªÂ°ËöÂ∞ë‰∏?Êï∞ÊçÆÂ∞±ÂÜôÂá†‰∏™ dummy Êï∞ÊçÆ
#     set num 0
#     while {$num < $number} {
#         WriteReg 0x68 0x00
#         incr num 1
#     }
#     # ÈÄâÊã© 0 ÈÄöÈÅìCS
#     WriteReg 0x70 0x00
#     # ‰ΩøËÉΩ master, ÂºÄÂßãÂèëÊï∞ÊçÆ
#     WriteReg 0x60 0x86
#     # ÈÄâÊã© 0 ÈÄöÈÅìCS ÊãâÈ´ò
#     WriteReg 0x70 0x1
#     # Á¶ÅÁî® master
#     WriteReg 0x60 0x186
# 
#     set num 0
#     set read_data "ReadData is "
#     while {$num < $byte_num + 4} {
#         if {$num >= 4} {
#             append read_data [string range [ReadReg 0x6c] end-1 end]
#         } else {
#             ReadReg 0x6c
#         }
#         incr num 1
#     }
#     return $read_data
# }
RDID
wrong # args: should be "RDID byte_num"
RDID 4
RDID is ffffffff
set_property PROBES.FILE {C:/Users/hjh09/Desktop/project/spi_test/prj/top.runs/impl_1/top.ltx} [get_hw_devices xc7a35t_0]
set_property FULL_PROBES.FILE {C:/Users/hjh09/Desktop/project/spi_test/prj/top.runs/impl_1/top.ltx} [get_hw_devices xc7a35t_0]
set_property PROGRAM.FILE {C:/Users/hjh09/Desktop/project/spi_test/prj/top.runs/impl_1/top.bit} [get_hw_devices xc7a35t_0]
program_hw_devices [get_hw_devices xc7a35t_0]
INFO: [Labtools 27-3164] End of startup status: HIGH
refresh_hw_device [lindex [get_hw_devices xc7a35t_0] 0]
INFO: [Labtools 27-2302] Device xc7a35t (JTAG device index = 0) is programmed with a design that has 1 JTAG AXI core(s).
source C:/Users/hjh09/Desktop/project/spi_test/tcl/axi_jtag.tcl
# proc ReadReg {address} {
#     set address [format 0x%08x $address]
#     create_hw_axi_txn rd_txn [get_hw_axis hw_axi_1] -address $address -type read
#     run_hw_axi rd_txn
#     set read_value [lindex [report_hw_axi_txn rd_txn] 1]
#     delete_hw_axi_txn rd_txn
#     return $read_value
# }
# proc WriteReg {address data} {
#     set address [format 0x%08x $address]
#     set data [format 0x%08x $data]
#     create_hw_axi_txn wr_txn [get_hw_axis hw_axi_1] -type write -address $address -data $data
#     run_hw_axi wr_txn
#     set write_value [lindex [report_hw_axi_txn wr_txn] 1]
#     delete_hw_axi_txn wr_txn
#     return $write_value
# }
source C:/Users/hjh09/Desktop/project/spi_test/tcl/flash_test.tcl
# proc RDID {byte_num} {
#     WriteReg 0x40 0xa
#     WriteReg 0x28 0x3fff
#     WriteReg 0x1c 0x80000000
#     # Â§ç‰Ωç tx rx fifo
#     WriteReg 0x60 0x1e6
#     # ÈáäÊîæ fifo Â§ç‰Ωç
#     WriteReg 0x60 0x186
#     # CMD = 9F, ËØ? FLASH ID
#     WriteReg 0x68 0x9f
#     # Ë¶ÅË?ªÂ°ËöÂ∞ë‰∏?Êï∞ÊçÆÂ∞±ÂÜôÂá†‰∏™ dummy Êï∞ÊçÆ
#     set num 0
#     while {$num < $byte_num} {
#         WriteReg 0x68 0x00
#         incr num 1
#     }
#     # ÈÄâÊã© 0 ÈÄöÈÅìCS
#     WriteReg 0x70 0x00
#     # ‰ΩøËÉΩ master, ÂºÄÂßãÂèëÊï∞ÊçÆ
#     WriteReg 0x60 0x86
#     # ÈÄâÊã© 0 ÈÄöÈÅìCS ÊãâÈ´ò
#     WriteReg 0x70 0x1
#     # Á¶ÅÁî® master
#     WriteReg 0x60 0x186
# 
#     set num 0
#     set id_data "RDID is "
#     while {$num < $byte_num + 1} {
#         if {$num >= 1} {
#             append id_data [string range [ReadReg 0x6c] end-1 end]
#         } else {
#             ReadReg 0x6c
#         }
#         incr num 1
#     }
#     return $id_data
# }
# proc WREN {} {
#     # Â§ç‰Ωç tx rx fifo
#     WriteReg 0x60 0x1e6
#     # ÈáäÊîæ fifo Â§ç‰Ωç
#     WriteReg 0x60 0x186
#     # CMD = 06, ÂÜô‰ΩøËÉ?
#     WriteReg 0x68 0x06
#     # ÈÄâÊã© 0 ÈÄöÈÅìCS
#     WriteReg 0x70 0x00
#     # ‰ΩøËÉΩ master, ÂºÄÂßãÂèëÊï∞ÊçÆ
#     WriteReg 0x60 0x86
#     # ÈÄâÊã© 0 ÈÄöÈÅìCS ÊãâÈ´ò
#     WriteReg 0x70 0x1
#     # Á¶ÅÁî® master
#     WriteReg 0x60 0x186
# }
# proc SE {Sector_Num} {
#     # Â§ç‰Ωç tx rx fifo
#     WriteReg 0x60 0x1e6
#     # ÈáäÊîæ fifo Â§ç‰Ωç
#     WriteReg 0x60 0x186
#     # CMD = d8, ÊâáÂå∫Êì¶Èô§
#     WriteReg 0x68 0xd8
#     # Write Address
#     WriteReg 0x68 $Sector_Num
#     WriteReg 0x68 0x00
#     WriteReg 0x68 0x00
#     # ÈÄâÊã© 0 ÈÄöÈÅìCS
#     WriteReg 0x70 0x00
#     # ‰ΩøËÉΩ master, ÂºÄÂßãÂèëÊï∞ÊçÆ
#     WriteReg 0x60 0x86
#     # ÈÄâÊã© 0 ÈÄöÈÅìCS ÊãâÈ´ò
#     WriteReg 0x70 0x1
#     # Á¶ÅÁî® master
#     WriteReg 0x60 0x186
# }
# proc BE {} {
#     # Â§ç‰Ωç tx rx fifo
#     WriteReg 0x60 0x1e6
#     # ÈáäÊîæ fifo Â§ç‰Ωç
#     WriteReg 0x60 0x186
#     # CMD = c7, Êï¥ÁâáÊì¶Èô§
#     WriteReg 0x68 0xc7
#     # ÈÄâÊã© 0 ÈÄöÈÅìCS
#     WriteReg 0x70 0x00
#     # ‰ΩøËÉΩ master, ÂºÄÂßãÂèëÊï∞ÊçÆ
#     WriteReg 0x60 0x86
#     # ÈÄâÊã© 0 ÈÄöÈÅìCS ÊãâÈ´ò
#     WriteReg 0x70 0x1
#     # Á¶ÅÁî® master
#     WriteReg 0x60 0x186
# }
# proc PP {address} {
# # ÂÖàÂÜôÂâ? 128 Byte, Âõ†‰∏∫FIFOÊ∑±Â∫¶256, ‰ΩÜÊòØcmd+Âú∞ÂùÄÂç†Áî®4Byte, ÊâÄ‰ª•ÂÆûÈôÖ‰ΩøÁî®‰∏çË∂?256ByteÂè?Áî°ß
#     # Â§ç‰Ωç tx rx fifo
#     WriteReg 0x60 0x1e6
#     # ÈáäÊîæ fifo Â§ç‰Ωç
#     WriteReg 0x60 0x186
#     # CMD = 02, È°µÂÜô
#     WriteReg 0x68 0x02
#     # Write Address
#     WriteReg 0x68 [expr ($address >> 16)]
#     WriteReg 0x68 [expr ($address % (2**16)) >> 8]
#     WriteReg 0x68 [expr ($address % (2**8))]
#     # Write Data
#     set num 0
#     while {$num < 128} {
#         WriteReg 0x68 $num
#         incr num 1
#     }
#     # ÈÄâÊã© 0 ÈÄöÈÅìCS
#     WriteReg 0x70 0x00
#     # ‰ΩøËÉΩ master, ÂºÄÂßãÂèëÊï∞ÊçÆ
#     WriteReg 0x60 0x86
#     # ÈÄâÊã© 0 ÈÄöÈÅìCS ÊãâÈ´ò
#     WriteReg 0x70 0x1
#     # Á¶ÅÁî® master
#     WriteReg 0x60 0x186
# # ÂÜçÂÜôÂê? 128 Byte
#     set address [expr {$address + 128}]
#     # Â§ç‰Ωç tx rx fifo
#     WriteReg 0x60 0x1e6
#     # ÈáäÊîæ fifo Â§ç‰Ωç
#     WriteReg 0x60 0x186
#     # CMD = 02, È°µÂÜô
#     WriteReg 0x68 0x02
#     # Write Address
#     WriteReg 0x68 [expr ($address >> 16)]
#     WriteReg 0x68 [expr ($address % (2**16)) >> 8]
#     WriteReg 0x68 [expr ($address % (2**8))]
#     # Write Data
#     set num 128
#     while {$num < 256} {
#         WriteReg 0x68 $num
#         incr num 1
#     }
#     # ÈÄâÊã© 0 ÈÄöÈÅìCS
#     WriteReg 0x70 0x00
#     # ‰ΩøËÉΩ master, ÂºÄÂßãÂèëÊï∞ÊçÆ
#     WriteReg 0x60 0x86
#     # ÈÄâÊã© 0 ÈÄöÈÅìCS ÊãâÈ´ò
#     WriteReg 0x70 0x1
#     # Á¶ÅÁî® master
#     WriteReg 0x60 0x186
# }
# proc READ {address number} {
#     # Â§ç‰Ωç tx rx fifo
#     WriteReg 0x60 0x1e6
#     # ÈáäÊîæ fifo Â§ç‰Ωç
#     WriteReg 0x60 0x186
#     # CMD = 03, ÊåâÂ≠óËäÇË?ªÊï∞Êç?
#     WriteReg 0x68 0x03
#     # Read Address
#     WriteReg 0x68 [expr ($address >> 16)]
#     WriteReg 0x68 [expr ($address % (2**16)) >> 8]
#     WriteReg 0x68 [expr ($address % (2**8))]
#     # Ë¶ÅË?ªÂ°ËöÂ∞ë‰∏?Êï∞ÊçÆÂ∞±ÂÜôÂá†‰∏™ dummy Êï∞ÊçÆ
#     set num 0
#     while {$num < $number} {
#         WriteReg 0x68 0x00
#         incr num 1
#     }
#     # ÈÄâÊã© 0 ÈÄöÈÅìCS
#     WriteReg 0x70 0x00
#     # ‰ΩøËÉΩ master, ÂºÄÂßãÂèëÊï∞ÊçÆ
#     WriteReg 0x60 0x86
#     # ÈÄâÊã© 0 ÈÄöÈÅìCS ÊãâÈ´ò
#     WriteReg 0x70 0x1
#     # Á¶ÅÁî® master
#     WriteReg 0x60 0x186
# 
#     set num 0
#     set read_data "ReadData is "
#     while {$num < $byte_num + 4} {
#         if {$num >= 4} {
#             append read_data [string range [ReadReg 0x6c] end-1 end]
#         } else {
#             ReadReg 0x6c
#         }
#         incr num 1
#     }
#     return $read_data
# }
RDID 3
RDID is ffffff
ReadReg 0x78
00000000
RDID 3
RDID is 20ba18
RDID 4
RDID is 20ba1810
RDID 8
RDID is 20ba181000002373
READ 0x1000 10
can't read "byte_num": no such variable
ReadReg 0x78
0000000d
READ 0x1000 10
can't read "byte_num": no such variable
source C:/Users/hjh09/Desktop/project/spi_test/tcl/flash_test.tcl
# proc RDID {byte_num} {
#     WriteReg 0x40 0xa
#     WriteReg 0x28 0x3fff
#     WriteReg 0x1c 0x80000000
#     # Â§ç‰Ωç tx rx fifo
#     WriteReg 0x60 0x1e6
#     # ÈáäÊîæ fifo Â§ç‰Ωç
#     WriteReg 0x60 0x186
#     # CMD = 9F, ËØ? FLASH ID
#     WriteReg 0x68 0x9f
#     # Ë¶ÅË?ªÂ°ËöÂ∞ë‰∏?Êï∞ÊçÆÂ∞±ÂÜôÂá†‰∏™ dummy Êï∞ÊçÆ
#     set num 0
#     while {$num < $byte_num} {
#         WriteReg 0x68 0x00
#         incr num 1
#     }
#     # ÈÄâÊã© 0 ÈÄöÈÅìCS
#     WriteReg 0x70 0x00
#     # ‰ΩøËÉΩ master, ÂºÄÂßãÂèëÊï∞ÊçÆ
#     WriteReg 0x60 0x86
#     # ÈÄâÊã© 0 ÈÄöÈÅìCS ÊãâÈ´ò
#     WriteReg 0x70 0x1
#     # Á¶ÅÁî® master
#     WriteReg 0x60 0x186
# 
#     set num 0
#     set id_data "RDID is "
#     while {$num < $byte_num + 1} {
#         if {$num >= 1} {
#             append id_data [string range [ReadReg 0x6c] end-1 end]
#         } else {
#             ReadReg 0x6c
#         }
#         incr num 1
#     }
#     return $id_data
# }
# proc WREN {} {
#     # Â§ç‰Ωç tx rx fifo
#     WriteReg 0x60 0x1e6
#     # ÈáäÊîæ fifo Â§ç‰Ωç
#     WriteReg 0x60 0x186
#     # CMD = 06, ÂÜô‰ΩøËÉ?
#     WriteReg 0x68 0x06
#     # ÈÄâÊã© 0 ÈÄöÈÅìCS
#     WriteReg 0x70 0x00
#     # ‰ΩøËÉΩ master, ÂºÄÂßãÂèëÊï∞ÊçÆ
#     WriteReg 0x60 0x86
#     # ÈÄâÊã© 0 ÈÄöÈÅìCS ÊãâÈ´ò
#     WriteReg 0x70 0x1
#     # Á¶ÅÁî® master
#     WriteReg 0x60 0x186
# }
# proc SE {Sector_Num} {
#     # Â§ç‰Ωç tx rx fifo
#     WriteReg 0x60 0x1e6
#     # ÈáäÊîæ fifo Â§ç‰Ωç
#     WriteReg 0x60 0x186
#     # CMD = d8, ÊâáÂå∫Êì¶Èô§
#     WriteReg 0x68 0xd8
#     # Write Address
#     WriteReg 0x68 $Sector_Num
#     WriteReg 0x68 0x00
#     WriteReg 0x68 0x00
#     # ÈÄâÊã© 0 ÈÄöÈÅìCS
#     WriteReg 0x70 0x00
#     # ‰ΩøËÉΩ master, ÂºÄÂßãÂèëÊï∞ÊçÆ
#     WriteReg 0x60 0x86
#     # ÈÄâÊã© 0 ÈÄöÈÅìCS ÊãâÈ´ò
#     WriteReg 0x70 0x1
#     # Á¶ÅÁî® master
#     WriteReg 0x60 0x186
# }
# proc BE {} {
#     # Â§ç‰Ωç tx rx fifo
#     WriteReg 0x60 0x1e6
#     # ÈáäÊîæ fifo Â§ç‰Ωç
#     WriteReg 0x60 0x186
#     # CMD = c7, Êï¥ÁâáÊì¶Èô§
#     WriteReg 0x68 0xc7
#     # ÈÄâÊã© 0 ÈÄöÈÅìCS
#     WriteReg 0x70 0x00
#     # ‰ΩøËÉΩ master, ÂºÄÂßãÂèëÊï∞ÊçÆ
#     WriteReg 0x60 0x86
#     # ÈÄâÊã© 0 ÈÄöÈÅìCS ÊãâÈ´ò
#     WriteReg 0x70 0x1
#     # Á¶ÅÁî® master
#     WriteReg 0x60 0x186
# }
# proc PP {address} {
# # ÂÖàÂÜôÂâ? 128 Byte, Âõ†‰∏∫FIFOÊ∑±Â∫¶256, ‰ΩÜÊòØcmd+Âú∞ÂùÄÂç†Áî®4Byte, ÊâÄ‰ª•ÂÆûÈôÖ‰ΩøÁî®‰∏çË∂?256ByteÂè?Áî°ß
#     # Â§ç‰Ωç tx rx fifo
#     WriteReg 0x60 0x1e6
#     # ÈáäÊîæ fifo Â§ç‰Ωç
#     WriteReg 0x60 0x186
#     # CMD = 02, È°µÂÜô
#     WriteReg 0x68 0x02
#     # Write Address
#     WriteReg 0x68 [expr ($address >> 16)]
#     WriteReg 0x68 [expr ($address % (2**16)) >> 8]
#     WriteReg 0x68 [expr ($address % (2**8))]
#     # Write Data
#     set num 0
#     while {$num < 128} {
#         WriteReg 0x68 $num
#         incr num 1
#     }
#     # ÈÄâÊã© 0 ÈÄöÈÅìCS
#     WriteReg 0x70 0x00
#     # ‰ΩøËÉΩ master, ÂºÄÂßãÂèëÊï∞ÊçÆ
#     WriteReg 0x60 0x86
#     # ÈÄâÊã© 0 ÈÄöÈÅìCS ÊãâÈ´ò
#     WriteReg 0x70 0x1
#     # Á¶ÅÁî® master
#     WriteReg 0x60 0x186
# # ÂÜçÂÜôÂê? 128 Byte
#     set address [expr {$address + 128}]
#     # Â§ç‰Ωç tx rx fifo
#     WriteReg 0x60 0x1e6
#     # ÈáäÊîæ fifo Â§ç‰Ωç
#     WriteReg 0x60 0x186
#     # CMD = 02, È°µÂÜô
#     WriteReg 0x68 0x02
#     # Write Address
#     WriteReg 0x68 [expr ($address >> 16)]
#     WriteReg 0x68 [expr ($address % (2**16)) >> 8]
#     WriteReg 0x68 [expr ($address % (2**8))]
#     # Write Data
#     set num 128
#     while {$num < 256} {
#         WriteReg 0x68 $num
#         incr num 1
#     }
#     # ÈÄâÊã© 0 ÈÄöÈÅìCS
#     WriteReg 0x70 0x00
#     # ‰ΩøËÉΩ master, ÂºÄÂßãÂèëÊï∞ÊçÆ
#     WriteReg 0x60 0x86
#     # ÈÄâÊã© 0 ÈÄöÈÅìCS ÊãâÈ´ò
#     WriteReg 0x70 0x1
#     # Á¶ÅÁî® master
#     WriteReg 0x60 0x186
# }
# proc READ {address number} {
#     # Â§ç‰Ωç tx rx fifo
#     WriteReg 0x60 0x1e6
#     # ÈáäÊîæ fifo Â§ç‰Ωç
#     WriteReg 0x60 0x186
#     # CMD = 03, ÊåâÂ≠óËäÇË?ªÊï∞Êç?
#     WriteReg 0x68 0x03
#     # Read Address
#     WriteReg 0x68 [expr ($address >> 16)]
#     WriteReg 0x68 [expr ($address % (2**16)) >> 8]
#     WriteReg 0x68 [expr ($address % (2**8))]
#     # Ë¶ÅË?ªÂ°ËöÂ∞ë‰∏?Êï∞ÊçÆÂ∞±ÂÜôÂá†‰∏™ dummy Êï∞ÊçÆ
#     set num 0
#     while {$num < $number} {
#         WriteReg 0x68 0x00
#         incr num 1
#     }
#     # ÈÄâÊã© 0 ÈÄöÈÅìCS
#     WriteReg 0x70 0x00
#     # ‰ΩøËÉΩ master, ÂºÄÂßãÂèëÊï∞ÊçÆ
#     WriteReg 0x60 0x86
#     # ÈÄâÊã© 0 ÈÄöÈÅìCS ÊãâÈ´ò
#     WriteReg 0x70 0x1
#     # Á¶ÅÁî® master
#     WriteReg 0x60 0x186
# 
#     set num 0
#     set read_data "ReadData is "
#     while {$num < $number + 4} {
#         if {$num >= 4} {
#             append read_data [string range [ReadReg 0x6c] end-1 end]
#         } else {
#             ReadReg 0x6c
#         }
#         incr num 1
#     }
#     return $read_data
# }
READ 0x1000 10
ReadData is 00000000000000000000
SE 1
00000186
READ 0x1000 10
ReadData is 00000000000000000000
BE
00000186
READ 0x1000 10
ReadData is 00000000000000000000
READ 0x100 20
ReadData is 0000000000000000000000000000000000000800
WREN
00000186
SE 1
00000186
READ 0x100 20
ReadData is 0000000000000000000000000000000000000800
SE 0
00000186
READ 0x100 20
ReadData is 0000000000000000000000000000000000000800
BE
00000186
READ 0x100 20
ReadData is 0000000000000000000000000000000000000800
WREN
00000186
BE
00000186
READ 0x100 20
ReadData is ffffffffffffffffffffffffffffffffffffffff
PP 0x100
00000186
READ 0x100 20
ReadData is ffffffffffffffffffffffffffffffffffffffff
READ 0x100 20
ReadData is ffffffffffffffffffffffffffffffffffffffff
WREN
00000186
PP 0x100
00000186
READ 0x100 20
ReadData is 000102030405060708090a0b0c0d0e0f10111213
READ 0x114 20
ReadData is 1415161718191a1b1c1d1e1f2021222324252627
READ 0x100 128
ReadData is 000102030405060708090a0b0c0d0e0f101112131415161718191a1b1c1d1e1f202122232425262728292a2b2c2d2e2f303132333435363738393a3b3c3d3e3f404142434445464748494a4b4c4d4e4f505152535455565758595a5b5c5d5e5f606162636465666768696a6b6c6d6e6f707172737475767778797a7b7c7d7e7f
READ 0x100 256
ReadData is 000102030405060708090a0b0c0d0e0f101112131415161718191a1b1c1d1e1f202122232425262728292a2b2c2d2e2f303132333435363738393a3b3c3d3e3f404142434445464748494a4b4c4d4e4f505152535455565758595a5b5c5d5e5f606162636465666768696a6b6c6d6e6f707172737475767778797a7b7c7d7e7fffffffffffffffffffffffffffffffffffffffffffffffffffffffffffffffffffffffffffffffffffffffffffffffffffffffffffffffffffffffffffffffffffffffffffffffffffffffffffffffffffffffffffffffffffffffffffffffffffffffffffffffffffffffffffffffffffffffffffffffffffffffffffffffff
READ 0x180 128
ReadData is ffffffffffffffffffffffffffffffffffffffffffffffffffffffffffffffffffffffffffffffffffffffffffffffffffffffffffffffffffffffffffffffffffffffffffffffffffffffffffffffffffffffffffffffffffffffffffffffffffffffffffffffffffffffffffffffffffffffffffffffffffffffffffffffff
source C:/Users/hjh09/Desktop/project/spi_test/tcl/flash_test.tcl
# proc RDID {byte_num} {
#     WriteReg 0x40 0xa
#     WriteReg 0x28 0x3fff
#     WriteReg 0x1c 0x80000000
#     # Â§ç‰Ωç tx rx fifo
#     WriteReg 0x60 0x1e6
#     # ÈáäÊîæ fifo Â§ç‰Ωç
#     WriteReg 0x60 0x186
#     # CMD = 9F, ËØ? FLASH ID
#     WriteReg 0x68 0x9f
#     # Ë¶ÅË?ªÂ°ËöÂ∞ë‰∏?Êï∞ÊçÆÂ∞±ÂÜôÂá†‰∏™ dummy Êï∞ÊçÆ
#     set num 0
#     while {$num < $byte_num} {
#         WriteReg 0x68 0x00
#         incr num 1
#     }
#     # ÈÄâÊã© 0 ÈÄöÈÅìCS
#     WriteReg 0x70 0x00
#     # ‰ΩøËÉΩ master, ÂºÄÂßãÂèëÊï∞ÊçÆ
#     WriteReg 0x60 0x86
#     # ÈÄâÊã© 0 ÈÄöÈÅìCS ÊãâÈ´ò
#     WriteReg 0x70 0x1
#     # Á¶ÅÁî® master
#     WriteReg 0x60 0x186
# 
#     set num 0
#     set id_data "RDID is "
#     while {$num < $byte_num + 1} {
#         if {$num >= 1} {
#             append id_data [string range [ReadReg 0x6c] end-1 end]
#         } else {
#             ReadReg 0x6c
#         }
#         incr num 1
#     }
#     return $id_data
# }
# proc WREN {} {
#     # Â§ç‰Ωç tx rx fifo
#     WriteReg 0x60 0x1e6
#     # ÈáäÊîæ fifo Â§ç‰Ωç
#     WriteReg 0x60 0x186
#     # CMD = 06, ÂÜô‰ΩøËÉ?
#     WriteReg 0x68 0x06
#     # ÈÄâÊã© 0 ÈÄöÈÅìCS
#     WriteReg 0x70 0x00
#     # ‰ΩøËÉΩ master, ÂºÄÂßãÂèëÊï∞ÊçÆ
#     WriteReg 0x60 0x86
#     # ÈÄâÊã© 0 ÈÄöÈÅìCS ÊãâÈ´ò
#     WriteReg 0x70 0x1
#     # Á¶ÅÁî® master
#     WriteReg 0x60 0x186
# }
# proc SE {Sector_Num} {
#     WREN
#     # Â§ç‰Ωç tx rx fifo
#     WriteReg 0x60 0x1e6
#     # ÈáäÊîæ fifo Â§ç‰Ωç
#     WriteReg 0x60 0x186
#     # CMD = d8, ÊâáÂå∫Êì¶Èô§
#     WriteReg 0x68 0xd8
#     # Write Address
#     WriteReg 0x68 $Sector_Num
#     WriteReg 0x68 0x00
#     WriteReg 0x68 0x00
#     # ÈÄâÊã© 0 ÈÄöÈÅìCS
#     WriteReg 0x70 0x00
#     # ‰ΩøËÉΩ master, ÂºÄÂßãÂèëÊï∞ÊçÆ
#     WriteReg 0x60 0x86
#     # ÈÄâÊã© 0 ÈÄöÈÅìCS ÊãâÈ´ò
#     WriteReg 0x70 0x1
#     # Á¶ÅÁî® master
#     WriteReg 0x60 0x186
# }
# proc BE {} {
#     WREN
#     # Â§ç‰Ωç tx rx fifo
#     WriteReg 0x60 0x1e6
#     # ÈáäÊîæ fifo Â§ç‰Ωç
#     WriteReg 0x60 0x186
#     # CMD = c7, Êï¥ÁâáÊì¶Èô§
#     WriteReg 0x68 0xc7
#     # ÈÄâÊã© 0 ÈÄöÈÅìCS
#     WriteReg 0x70 0x00
#     # ‰ΩøËÉΩ master, ÂºÄÂßãÂèëÊï∞ÊçÆ
#     WriteReg 0x60 0x86
#     # ÈÄâÊã© 0 ÈÄöÈÅìCS ÊãâÈ´ò
#     WriteReg 0x70 0x1
#     # Á¶ÅÁî® master
#     WriteReg 0x60 0x186
# }
# proc PP {address} {
#     WREN
# # ÂÖàÂÜôÂâ? 128 Byte, Âõ†‰∏∫FIFOÊ∑±Â∫¶256, ‰ΩÜÊòØcmd+Âú∞ÂùÄÂç†Áî®4Byte, ÊâÄ‰ª•ÂÆûÈôÖ‰ΩøÁî®‰∏çË∂?256ByteÂè?Áî°ß
#     # Â§ç‰Ωç tx rx fifo
#     WriteReg 0x60 0x1e6
#     # ÈáäÊîæ fifo Â§ç‰Ωç
#     WriteReg 0x60 0x186
#     # CMD = 02, È°µÂÜô
#     WriteReg 0x68 0x02
#     # Write Address
#     WriteReg 0x68 [expr ($address >> 16)]
#     WriteReg 0x68 [expr ($address % (2**16)) >> 8]
#     WriteReg 0x68 [expr ($address % (2**8))]
#     # Write Data
#     set num 0
#     while {$num < 128} {
#         WriteReg 0x68 $num
#         incr num 1
#     }
#     # ÈÄâÊã© 0 ÈÄöÈÅìCS
#     WriteReg 0x70 0x00
#     # ‰ΩøËÉΩ master, ÂºÄÂßãÂèëÊï∞ÊçÆ
#     WriteReg 0x60 0x86
#     # ÈÄâÊã© 0 ÈÄöÈÅìCS ÊãâÈ´ò
#     WriteReg 0x70 0x1
#     # Á¶ÅÁî® master
#     WriteReg 0x60 0x186
# # ÂÜçÂÜôÂê? 128 Byte
#     set address [expr {$address + 128}]
#     # Â§ç‰Ωç tx rx fifo
#     WriteReg 0x60 0x1e6
#     # ÈáäÊîæ fifo Â§ç‰Ωç
#     WriteReg 0x60 0x186
#     # CMD = 02, È°µÂÜô
#     WriteReg 0x68 0x02
#     # Write Address
#     WriteReg 0x68 [expr ($address >> 16)]
#     WriteReg 0x68 [expr ($address % (2**16)) >> 8]
#     WriteReg 0x68 [expr ($address % (2**8))]
#     # Write Data
#     while {$num < 256} {
#         WriteReg 0x68 $num
#         incr num 1
#     }
#     # ÈÄâÊã© 0 ÈÄöÈÅìCS
#     WriteReg 0x70 0x00
#     # ‰ΩøËÉΩ master, ÂºÄÂßãÂèëÊï∞ÊçÆ
#     WriteReg 0x60 0x86
#     # ÈÄâÊã© 0 ÈÄöÈÅìCS ÊãâÈ´ò
#     WriteReg 0x70 0x1
#     # Á¶ÅÁî® master
#     WriteReg 0x60 0x186
# }
# proc READ {address number} {
#     # Â§ç‰Ωç tx rx fifo
#     WriteReg 0x60 0x1e6
#     # ÈáäÊîæ fifo Â§ç‰Ωç
#     WriteReg 0x60 0x186
#     # CMD = 03, ÊåâÂ≠óËäÇË?ªÊï∞Êç?
#     WriteReg 0x68 0x03
#     # Read Address
#     WriteReg 0x68 [expr ($address >> 16)]
#     WriteReg 0x68 [expr ($address % (2**16)) >> 8]
#     WriteReg 0x68 [expr ($address % (2**8))]
#     # Ë¶ÅË?ªÂ°ËöÂ∞ë‰∏?Êï∞ÊçÆÂ∞±ÂÜôÂá†‰∏™ dummy Êï∞ÊçÆ
#     set num 0
#     while {$num < $number} {
#         WriteReg 0x68 0x00
#         incr num 1
#     }
#     # ÈÄâÊã© 0 ÈÄöÈÅìCS
#     WriteReg 0x70 0x00
#     # ‰ΩøËÉΩ master, ÂºÄÂßãÂèëÊï∞ÊçÆ
#     WriteReg 0x60 0x86
#     # ÈÄâÊã© 0 ÈÄöÈÅìCS ÊãâÈ´ò
#     WriteReg 0x70 0x1
#     # Á¶ÅÁî® master
#     WriteReg 0x60 0x186
# 
#     set num 0
#     set read_data "ReadData is "
#     while {$num < $number + 4} {
#         if {$num >= 4} {
#             append read_data [string range [ReadReg 0x6c] end-1 end]
#         } else {
#             ReadReg 0x6c
#         }
#         incr num 1
#     }
#     return $read_data
# }
READ 0x100 128
ReadData is 000102030405060708090a0b0c0d0e0f101112131415161718191a1b1c1d1e1f202122232425262728292a2b2c2d2e2f303132333435363738393a3b3c3d3e3f404142434445464748494a4b4c4d4e4f505152535455565758595a5b5c5d5e5f606162636465666768696a6b6c6d6e6f707172737475767778797a7b7c7d7e7f
SE 0
00000186
READ 0x100 128
ReadData is ffffffffffffffffffffffffffffffffffffffffffffffffffffffffffffffffffffffffffffffffffffffffffffffffffffffffffffffffffffffffffffffffffffffffffffffffffffffffffffffffffffffffffffffffffffffffffffffffffffffffffffffffffffffffffffffffffffffffffffffffffffffffffffffff
PP 0x100
00000186
READ 0x100 128
ReadData is 000102030405060708090a0b0c0d0e0f101112131415161718191a1b1c1d1e1f202122232425262728292a2b2c2d2e2f303132333435363738393a3b3c3d3e3f404142434445464748494a4b4c4d4e4f505152535455565758595a5b5c5d5e5f606162636465666768696a6b6c6d6e6f707172737475767778797a7b7c7d7e7f
READ 0x180 128
ReadData is ffffffffffffffffffffffffffffffffffffffffffffffffffffffffffffffffffffffffffffffffffffffffffffffffffffffffffffffffffffffffffffffffffffffffffffffffffffffffffffffffffffffffffffffffffffffffffffffffffffffffffffffffffffffffffffffffffffffffffffffffffffffffffffffff
PP 0x180
00000186
READ 0x180 128
ReadData is 000102030405060708090a0b0c0d0e0f101112131415161718191a1b1c1d1e1f202122232425262728292a2b2c2d2e2f303132333435363738393a3b3c3d3e3f404142434445464748494a4b4c4d4e4f505152535455565758595a5b5c5d5e5f606162636465666768696a6b6c6d6e6f707172737475767778797a7b7c7d7e7f
source C:/Users/hjh09/Desktop/project/spi_test/tcl/flash_test.tcl
# proc RDID {byte_num} {
#     WriteReg 0x40 0xa
#     WriteReg 0x28 0x3fff
#     WriteReg 0x1c 0x80000000
#     # Â§ç‰Ωç tx rx fifo
#     WriteReg 0x60 0x1e6
#     # ÈáäÊîæ fifo Â§ç‰Ωç
#     WriteReg 0x60 0x186
#     # CMD = 9F, ËØ? FLASH ID
#     WriteReg 0x68 0x9f
#     # Ë¶ÅË?ªÂ°ËöÂ∞ë‰∏?Êï∞ÊçÆÂ∞±ÂÜôÂá†‰∏™ dummy Êï∞ÊçÆ
#     set num 0
#     while {$num < $byte_num} {
#         WriteReg 0x68 0x00
#         incr num 1
#     }
#     # ÈÄâÊã© 0 ÈÄöÈÅìCS
#     WriteReg 0x70 0x00
#     # ‰ΩøËÉΩ master, ÂºÄÂßãÂèëÊï∞ÊçÆ
#     WriteReg 0x60 0x86
#     # ÈÄâÊã© 0 ÈÄöÈÅìCS ÊãâÈ´ò
#     WriteReg 0x70 0x1
#     # Á¶ÅÁî® master
#     WriteReg 0x60 0x186
# 
#     set num 0
#     set id_data "RDID is "
#     while {$num < $byte_num + 1} {
#         if {$num >= 1} {
#             append id_data [string range [ReadReg 0x6c] end-1 end]
#         } else {
#             ReadReg 0x6c
#         }
#         incr num 1
#     }
#     return $id_data
# }
# proc WREN {} {
#     # Â§ç‰Ωç tx rx fifo
#     WriteReg 0x60 0x1e6
#     # ÈáäÊîæ fifo Â§ç‰Ωç
#     WriteReg 0x60 0x186
#     # CMD = 06, ÂÜô‰ΩøËÉ?
#     WriteReg 0x68 0x06
#     # ÈÄâÊã© 0 ÈÄöÈÅìCS
#     WriteReg 0x70 0x00
#     # ‰ΩøËÉΩ master, ÂºÄÂßãÂèëÊï∞ÊçÆ
#     WriteReg 0x60 0x86
#     # ÈÄâÊã© 0 ÈÄöÈÅìCS ÊãâÈ´ò
#     WriteReg 0x70 0x1
#     # Á¶ÅÁî® master
#     WriteReg 0x60 0x186
# }
# proc SE {Sector_Num} {
#     WREN
#     # Â§ç‰Ωç tx rx fifo
#     WriteReg 0x60 0x1e6
#     # ÈáäÊîæ fifo Â§ç‰Ωç
#     WriteReg 0x60 0x186
#     # CMD = d8, ÊâáÂå∫Êì¶Èô§
#     WriteReg 0x68 0xd8
#     # Write Address
#     WriteReg 0x68 $Sector_Num
#     WriteReg 0x68 0x00
#     WriteReg 0x68 0x00
#     # ÈÄâÊã© 0 ÈÄöÈÅìCS
#     WriteReg 0x70 0x00
#     # ‰ΩøËÉΩ master, ÂºÄÂßãÂèëÊï∞ÊçÆ
#     WriteReg 0x60 0x86
#     # ÈÄâÊã© 0 ÈÄöÈÅìCS ÊãâÈ´ò
#     WriteReg 0x70 0x1
#     # Á¶ÅÁî® master
#     WriteReg 0x60 0x186
#     return "Sector Erase Done!"
# }
# proc BE {} {
#     WREN
#     # Â§ç‰Ωç tx rx fifo
#     WriteReg 0x60 0x1e6
#     # ÈáäÊîæ fifo Â§ç‰Ωç
#     WriteReg 0x60 0x186
#     # CMD = c7, Êï¥ÁâáÊì¶Èô§
#     WriteReg 0x68 0xc7
#     # ÈÄâÊã© 0 ÈÄöÈÅìCS
#     WriteReg 0x70 0x00
#     # ‰ΩøËÉΩ master, ÂºÄÂßãÂèëÊï∞ÊçÆ
#     WriteReg 0x60 0x86
#     # ÈÄâÊã© 0 ÈÄöÈÅìCS ÊãâÈ´ò
#     WriteReg 0x70 0x1
#     # Á¶ÅÁî® master
#     WriteReg 0x60 0x186
#     return "Bulk Erase Done!"
# }
# proc PP {address} {
#     WREN
# # ÂÖàÂÜôÂâ? 128 Byte, Âõ†‰∏∫FIFOÊ∑±Â∫¶256, ‰ΩÜÊòØcmd+Âú∞ÂùÄÂç†Áî®4Byte, ÊâÄ‰ª•ÂÆûÈôÖ‰ΩøÁî®‰∏çË∂?256ByteÂè?Áî°ß
#     # Â§ç‰Ωç tx rx fifo
#     WriteReg 0x60 0x1e6
#     # ÈáäÊîæ fifo Â§ç‰Ωç
#     WriteReg 0x60 0x186
#     # CMD = 02, È°µÂÜô
#     WriteReg 0x68 0x02
#     # Write Address
#     WriteReg 0x68 [expr ($address >> 16)]
#     WriteReg 0x68 [expr ($address % (2**16)) >> 8]
#     WriteReg 0x68 [expr ($address % (2**8))]
#     # Write Data
#     set num 0
#     while {$num < 128} {
#         WriteReg 0x68 $num
#         incr num 1
#     }
#     # ÈÄâÊã© 0 ÈÄöÈÅìCS
#     WriteReg 0x70 0x00
#     # ‰ΩøËÉΩ master, ÂºÄÂßãÂèëÊï∞ÊçÆ
#     WriteReg 0x60 0x86
#     # ÈÄâÊã© 0 ÈÄöÈÅìCS ÊãâÈ´ò
#     WriteReg 0x70 0x1
#     # Á¶ÅÁî® master
#     WriteReg 0x60 0x186
# # ÂÜçÂÜôÂê? 128 Byte
#     set address [expr {$address + 128}]
#     puts [ format 0x%08x $address]
#     # Â§ç‰Ωç tx rx fifo
#     WriteReg 0x60 0x1e6
#     # ÈáäÊîæ fifo Â§ç‰Ωç
#     WriteReg 0x60 0x186
#     # CMD = 02, È°µÂÜô
#     WriteReg 0x68 0x02
#     # Write Address
#     WriteReg 0x68 [expr ($address >> 16)]
#     WriteReg 0x68 [expr ($address % (2**16)) >> 8]
#     WriteReg 0x68 [expr ($address % (2**8))]
#     # Write Data
#     while {$num < 256} {
#         WriteReg 0x68 $num
#         incr num 1
#     }
#     # ÈÄâÊã© 0 ÈÄöÈÅìCS
#     WriteReg 0x70 0x00
#     # ‰ΩøËÉΩ master, ÂºÄÂßãÂèëÊï∞ÊçÆ
#     WriteReg 0x60 0x86
#     # ÈÄâÊã© 0 ÈÄöÈÅìCS ÊãâÈ´ò
#     WriteReg 0x70 0x1
#     # Á¶ÅÁî® master
#     WriteReg 0x60 0x186
#     return "Page Program Done!"
# }
# proc READ {address number} {
#     # Â§ç‰Ωç tx rx fifo
#     WriteReg 0x60 0x1e6
#     # ÈáäÊîæ fifo Â§ç‰Ωç
#     WriteReg 0x60 0x186
#     # CMD = 03, ÊåâÂ≠óËäÇË?ªÊï∞Êç?
#     WriteReg 0x68 0x03
#     # Read Address
#     WriteReg 0x68 [expr ($address >> 16)]
#     WriteReg 0x68 [expr ($address % (2**16)) >> 8]
#     WriteReg 0x68 [expr ($address % (2**8))]
#     # Ë¶ÅË?ªÂ°ËöÂ∞ë‰∏?Êï∞ÊçÆÂ∞±ÂÜôÂá†‰∏™ dummy Êï∞ÊçÆ
#     set num 0
#     while {$num < $number} {
#         WriteReg 0x68 0x00
#         incr num 1
#     }
#     # ÈÄâÊã© 0 ÈÄöÈÅìCS
#     WriteReg 0x70 0x00
#     # ‰ΩøËÉΩ master, ÂºÄÂßãÂèëÊï∞ÊçÆ
#     WriteReg 0x60 0x86
#     # ÈÄâÊã© 0 ÈÄöÈÅìCS ÊãâÈ´ò
#     WriteReg 0x70 0x1
#     # Á¶ÅÁî® master
#     WriteReg 0x60 0x186
# 
#     set num 0
#     set read_data "ReadData is "
#     while {$num < $number + 4} {
#         if {$num >= 4} {
#             append read_data [string range [ReadReg 0x6c] end-1 end]
#         } else {
#             ReadReg 0x6c
#         }
#         incr num 1
#     }
#     return $read_data
# }
BE
Bulk Erase Done!
READ 0x100 128
ReadData is ffffffffffffffffffffffffffffffffffffffffffffffffffffffffffffffffffffffffffffffffffffffffffffffffffffffffffffffffffffffffffffffffffffffffffffffffffffffffffffffffffffffffffffffffffffffffffffffffffffffffffffffffffffffffffffffffffffffffffffffffffffffffffffffff
PP 0x100
0x00000180
Page Program Done!
READ 0x100 128
ReadData is ffffffffffffffffffffffffffffffffffffffffffffffffffffffffffffffffffffffffffffffffffffffffffffffffffffffffffffffffffffffffffffffffffffffffffffffffffffffffffffffffffffffffffffffffffffffffffffffffffffffffffffffffffffffffffffffffffffffffffffffffffffffffffffffff
READ 0x100 128
ReadData is ffffffffffffffffffffffffffffffffffffffffffffffffffffffffffffffffffffffffffffffffffffffffffffffffffffffffffffffffffffffffffffffffffffffffffffffffffffffffffffffffffffffffffffffffffffffffffffffffffffffffffffffffffffffffffffffffffffffffffffffffffffffffffffffff
PP 0x100
0x00000180
Page Program Done!
READ 0x100 128
ReadData is 000102030405060708090a0b0c0d0e0f101112131415161718191a1b1c1d1e1f202122232425262728292a2b2c2d2e2f303132333435363738393a3b3c3d3e3f404142434445464748494a4b4c4d4e4f505152535455565758595a5b5c5d5e5f606162636465666768696a6b6c6d6e6f707172737475767778797a7b7c7d7e7f
READ 0x180 128
ReadData is ffffffffffffffffffffffffffffffffffffffffffffffffffffffffffffffffffffffffffffffffffffffffffffffffffffffffffffffffffffffffffffffffffffffffffffffffffffffffffffffffffffffffffffffffffffffffffffffffffffffffffffffffffffffffffffffffffffffffffffffffffffffffffffffff
PP 0x100
0x00000180
Page Program Done!
READ 0x180 128
ReadData is ffffffffffffffffffffffffffffffffffffffffffffffffffffffffffffffffffffffffffffffffffffffffffffffffffffffffffffffffffffffffffffffffffffffffffffffffffffffffffffffffffffffffffffffffffffffffffffffffffffffffffffffffffffffffffffffffffffffffffffffffffffffffffffffff
ERROR: [Labtoolstcl 44-513] HW Target shutdown. Closing target: localhost:3121/xilinx_tcf/Digilent/210512180081
INFO: [Labtoolstcl 44-466] Opening hw_target localhost:3121/xilinx_tcf/Digilent/210512180081
INFO: [Labtools 27-2302] Device xc7a35t (JTAG device index = 0) is programmed with a design that has 1 JTAG AXI core(s).
WARNING: [Labtoolstcl 44-129] No matching hw_ila_data was found.
source C:/Users/hjh09/Desktop/project/spi_test/tcl/flash_test.tcl
# proc RDID {byte_num} {
#     WriteReg 0x40 0xa
#     WriteReg 0x28 0x3fff
#     WriteReg 0x1c 0x80000000
#     # Â§ç‰Ωç tx rx fifo
#     WriteReg 0x60 0x1e6
#     # ÈáäÊîæ fifo Â§ç‰Ωç
#     WriteReg 0x60 0x186
#     # CMD = 9F, ËØ? FLASH ID
#     WriteReg 0x68 0x9f
#     # Ë¶ÅË?ªÂ°ËöÂ∞ë‰∏?Êï∞ÊçÆÂ∞±ÂÜôÂá†‰∏™ dummy Êï∞ÊçÆ
#     set num 0
#     while {$num < $byte_num} {
#         WriteReg 0x68 0x00
#         incr num 1
#     }
#     # ÈÄâÊã© 0 ÈÄöÈÅìCS
#     WriteReg 0x70 0x00
#     # ‰ΩøËÉΩ master, ÂºÄÂßãÂèëÊï∞ÊçÆ
#     WriteReg 0x60 0x86
#     # ÈÄâÊã© 0 ÈÄöÈÅìCS ÊãâÈ´ò
#     WriteReg 0x70 0x1
#     # Á¶ÅÁî® master
#     WriteReg 0x60 0x186
# 
#     set num 0
#     set id_data "RDID is "
#     while {$num < $byte_num + 1} {
#         if {$num >= 1} {
#             append id_data [string range [ReadReg 0x6c] end-1 end]
#         } else {
#             ReadReg 0x6c
#         }
#         incr num 1
#     }
#     return $id_data
# }
# proc WREN {} {
#     # Â§ç‰Ωç tx rx fifo
#     WriteReg 0x60 0x1e6
#     # ÈáäÊîæ fifo Â§ç‰Ωç
#     WriteReg 0x60 0x186
#     # CMD = 06, ÂÜô‰ΩøËÉ?
#     WriteReg 0x68 0x06
#     # ÈÄâÊã© 0 ÈÄöÈÅìCS
#     WriteReg 0x70 0x00
#     # ‰ΩøËÉΩ master, ÂºÄÂßãÂèëÊï∞ÊçÆ
#     WriteReg 0x60 0x86
#     # ÈÄâÊã© 0 ÈÄöÈÅìCS ÊãâÈ´ò
#     WriteReg 0x70 0x1
#     # Á¶ÅÁî® master
#     WriteReg 0x60 0x186
# }
# proc SE {Sector_Num} {
#     WREN
#     # Â§ç‰Ωç tx rx fifo
#     WriteReg 0x60 0x1e6
#     # ÈáäÊîæ fifo Â§ç‰Ωç
#     WriteReg 0x60 0x186
#     # CMD = d8, ÊâáÂå∫Êì¶Èô§
#     WriteReg 0x68 0xd8
#     # Write Address
#     WriteReg 0x68 $Sector_Num
#     WriteReg 0x68 0x00
#     WriteReg 0x68 0x00
#     # ÈÄâÊã© 0 ÈÄöÈÅìCS
#     WriteReg 0x70 0x00
#     # ‰ΩøËÉΩ master, ÂºÄÂßãÂèëÊï∞ÊçÆ
#     WriteReg 0x60 0x86
#     # ÈÄâÊã© 0 ÈÄöÈÅìCS ÊãâÈ´ò
#     WriteReg 0x70 0x1
#     # Á¶ÅÁî® master
#     WriteReg 0x60 0x186
#     return "Sector Erase Done!"
# }
# proc BE {} {
#     WREN
#     # Â§ç‰Ωç tx rx fifo
#     WriteReg 0x60 0x1e6
#     # ÈáäÊîæ fifo Â§ç‰Ωç
#     WriteReg 0x60 0x186
#     # CMD = c7, Êï¥ÁâáÊì¶Èô§
#     WriteReg 0x68 0xc7
#     # ÈÄâÊã© 0 ÈÄöÈÅìCS
#     WriteReg 0x70 0x00
#     # ‰ΩøËÉΩ master, ÂºÄÂßãÂèëÊï∞ÊçÆ
#     WriteReg 0x60 0x86
#     # ÈÄâÊã© 0 ÈÄöÈÅìCS ÊãâÈ´ò
#     WriteReg 0x70 0x1
#     # Á¶ÅÁî® master
#     WriteReg 0x60 0x186
#     return "Bulk Erase Done!"
# }
# proc PP {address} {
#     WREN
# # ÂÖàÂÜôÂâ? 128 Byte, Âõ†‰∏∫FIFOÊ∑±Â∫¶256, ‰ΩÜÊòØcmd+Âú∞ÂùÄÂç†Áî®4Byte, ÊâÄ‰ª•ÂÆûÈôÖ‰ΩøÁî®‰∏çË∂?256ByteÂè?Áî°ß
#     # Â§ç‰Ωç tx rx fifo
#     WriteReg 0x60 0x1e6
#     # ÈáäÊîæ fifo Â§ç‰Ωç
#     WriteReg 0x60 0x186
#     # CMD = 02, È°µÂÜô
#     WriteReg 0x68 0x02
#     # Write Address
#     WriteReg 0x68 [expr ($address >> 16)]
#     WriteReg 0x68 [expr ($address % (2**16)) >> 8]
#     WriteReg 0x68 [expr ($address % (2**8))]
#     # Write Data
#     set num 0
#     while {$num < 128} {
#         WriteReg 0x68 $num
#         incr num 1
#     }
#     # ÈÄâÊã© 0 ÈÄöÈÅìCS
#     WriteReg 0x70 0x00
#     # ‰ΩøËÉΩ master, ÂºÄÂßãÂèëÊï∞ÊçÆ
#     WriteReg 0x60 0x86
#     # ÈÄâÊã© 0 ÈÄöÈÅìCS ÊãâÈ´ò
#     WriteReg 0x70 0x1
#     # Á¶ÅÁî® master
#     WriteReg 0x60 0x186
# # ÂÜçÂÜôÂê? 128 Byte
#     WREN
#     set address [expr {$address + 128}]
#     puts [ format 0x%08x $address]
#     # Â§ç‰Ωç tx rx fifo
#     WriteReg 0x60 0x1e6
#     # ÈáäÊîæ fifo Â§ç‰Ωç
#     WriteReg 0x60 0x186
#     # CMD = 02, È°µÂÜô
#     WriteReg 0x68 0x02
#     # Write Address
#     WriteReg 0x68 [expr ($address >> 16)]
#     WriteReg 0x68 [expr ($address % (2**16)) >> 8]
#     WriteReg 0x68 [expr ($address % (2**8))]
#     # Write Data
#     while {$num < 256} {
#         WriteReg 0x68 $num
#         incr num 1
#     }
#     # ÈÄâÊã© 0 ÈÄöÈÅìCS
#     WriteReg 0x70 0x00
#     # ‰ΩøËÉΩ master, ÂºÄÂßãÂèëÊï∞ÊçÆ
#     WriteReg 0x60 0x86
#     # ÈÄâÊã© 0 ÈÄöÈÅìCS ÊãâÈ´ò
#     WriteReg 0x70 0x1
#     # Á¶ÅÁî® master
#     WriteReg 0x60 0x186
#     return "Page Program Done!"
# }
# proc READ {address number} {
#     # Â§ç‰Ωç tx rx fifo
#     WriteReg 0x60 0x1e6
#     # ÈáäÊîæ fifo Â§ç‰Ωç
#     WriteReg 0x60 0x186
#     # CMD = 03, ÊåâÂ≠óËäÇË?ªÊï∞Êç?
#     WriteReg 0x68 0x03
#     # Read Address
#     WriteReg 0x68 [expr ($address >> 16)]
#     WriteReg 0x68 [expr ($address % (2**16)) >> 8]
#     WriteReg 0x68 [expr ($address % (2**8))]
#     # Ë¶ÅË?ªÂ°ËöÂ∞ë‰∏?Êï∞ÊçÆÂ∞±ÂÜôÂá†‰∏™ dummy Êï∞ÊçÆ
#     set num 0
#     while {$num < $number} {
#         WriteReg 0x68 0x00
#         incr num 1
#     }
#     # ÈÄâÊã© 0 ÈÄöÈÅìCS
#     WriteReg 0x70 0x00
#     # ‰ΩøËÉΩ master, ÂºÄÂßãÂèëÊï∞ÊçÆ
#     WriteReg 0x60 0x86
#     # ÈÄâÊã© 0 ÈÄöÈÅìCS ÊãâÈ´ò
#     WriteReg 0x70 0x1
#     # Á¶ÅÁî® master
#     WriteReg 0x60 0x186
# 
#     set num 0
#     set read_data "ReadData is "
#     while {$num < $number + 4} {
#         if {$num >= 4} {
#             append read_data [string range [ReadReg 0x6c] end-1 end]
#         } else {
#             ReadReg 0x6c
#         }
#         incr num 1
#     }
#     return $read_data
# }
READ 0x180 128
ReadData is ffffffffffffffffffffffffffffffffffffffffffffffffffffffffffffffffffffffffffffffffffffffffffffffffffffffffffffffffffffffffffffffffffffffffffffffffffffffffffffffffffffffffffffffffffffffffffffffffffffffffffffffffffffffffffffffffffffffffffffffffffffffffffffffff
READ 0x100 128
ReadData is 000102030405060708090a0b0c0d0e0f101112131415161718191a1b1c1d1e1f202122232425262728292a2b2c2d2e2f303132333435363738393a3b3c3d3e3f404142434445464748494a4b4c4d4e4f505152535455565758595a5b5c5d5e5f606162636465666768696a6b6c6d6e6f707172737475767778797a7b7c7d7e7f
SE 0x0
Sector Erase Done!
READ 0x100 128
ReadData is ffffffffffffffffffffffffffffffffffffffffffffffffffffffffffffffffffffffffffffffffffffffffffffffffffffffffffffffffffffffffffffffffffffffffffffffffffffffffffffffffffffffffffffffffffffffffffffffffffffffffffffffffffffffffffffffffffffffffffffffffffffffffffffffff
PP 0x100
0x00000180
Page Program Done!
READ 0x100 128
ReadData is 000102030405060708090a0b0c0d0e0f101112131415161718191a1b1c1d1e1f202122232425262728292a2b2c2d2e2f303132333435363738393a3b3c3d3e3f404142434445464748494a4b4c4d4e4f505152535455565758595a5b5c5d5e5f606162636465666768696a6b6c6d6e6f707172737475767778797a7b7c7d7e7f
READ 0x180 128
ReadData is 808182838485868788898a8b8c8d8e8f909192939495969798999a9b9c9d9e9fa0a1a2a3a4a5a6a7a8a9aaabacadaeafb0b1b2b3b4b5b6b7b8b9babbbcbdbebfc0c1c2c3c4c5c6c7c8c9cacbcccdcecfd0d1d2d3d4d5d6d7d8d9dadbdcdddedfe0e1e2e3e4e5e6e7e8e9eaebecedeeeff0f1f2f3f4f5f6f7f8f9fafbfcfdfeff
source C:/Users/hjh09/Desktop/project/spi_test/tcl/flash_test.tcl
# proc RDID {byte_num} {
#     WriteReg 0x40 0xa
#     WriteReg 0x28 0x3fff
#     WriteReg 0x1c 0x80000000
#     # Â§ç‰Ωç tx rx fifo
#     WriteReg 0x60 0x1e6
#     # ÈáäÊîæ fifo Â§ç‰Ωç
#     WriteReg 0x60 0x186
#     # CMD = 9F, ËØ? FLASH ID
#     WriteReg 0x68 0x9f
#     # Ë¶ÅË?ªÂ°ËöÂ∞ë‰∏?Êï∞ÊçÆÂ∞±ÂÜôÂá†‰∏™ dummy Êï∞ÊçÆ
#     set num 0
#     while {$num < $byte_num} {
#         WriteReg 0x68 0x00
#         incr num 1
#     }
#     # ÈÄâÊã© 0 ÈÄöÈÅìCS
#     WriteReg 0x70 0x00
#     # ‰ΩøËÉΩ master, ÂºÄÂßãÂèëÊï∞ÊçÆ
#     WriteReg 0x60 0x86
#     # ÈÄâÊã© 0 ÈÄöÈÅìCS ÊãâÈ´ò
#     WriteReg 0x70 0x1
#     # Á¶ÅÁî® master
#     WriteReg 0x60 0x186
# 
#     set num 0
#     set id_data "RDID is "
#     while {$num < $byte_num + 1} {
#         if {$num >= 1} {
#             append id_data [string range [ReadReg 0x6c] end-1 end]
#         } else {
#             ReadReg 0x6c
#         }
#         incr num 1
#     }
#     return $id_data
# }
# proc WREN {} {
#     # Â§ç‰Ωç tx rx fifo
#     WriteReg 0x60 0x1e6
#     # ÈáäÊîæ fifo Â§ç‰Ωç
#     WriteReg 0x60 0x186
#     # CMD = 06, ÂÜô‰ΩøËÉ?
#     WriteReg 0x68 0x06
#     # ÈÄâÊã© 0 ÈÄöÈÅìCS
#     WriteReg 0x70 0x00
#     # ‰ΩøËÉΩ master, ÂºÄÂßãÂèëÊï∞ÊçÆ
#     WriteReg 0x60 0x86
#     # ÈÄâÊã© 0 ÈÄöÈÅìCS ÊãâÈ´ò
#     WriteReg 0x70 0x1
#     # Á¶ÅÁî® master
#     WriteReg 0x60 0x186
#     return "Write Enable!"
# }
# proc SE {Sector_Num} {
#     WREN
#     # Â§ç‰Ωç tx rx fifo
#     WriteReg 0x60 0x1e6
#     # ÈáäÊîæ fifo Â§ç‰Ωç
#     WriteReg 0x60 0x186
#     # CMD = d8, ÊâáÂå∫Êì¶Èô§
#     WriteReg 0x68 0xd8
#     # Write Address
#     WriteReg 0x68 $Sector_Num
#     WriteReg 0x68 0x00
#     WriteReg 0x68 0x00
#     # ÈÄâÊã© 0 ÈÄöÈÅìCS
#     WriteReg 0x70 0x00
#     # ‰ΩøËÉΩ master, ÂºÄÂßãÂèëÊï∞ÊçÆ
#     WriteReg 0x60 0x86
#     # ÈÄâÊã© 0 ÈÄöÈÅìCS ÊãâÈ´ò
#     WriteReg 0x70 0x1
#     # Á¶ÅÁî® master
#     WriteReg 0x60 0x186
#     return "Sector Erase Done!"
# }
# proc BE {} {
#     WREN
#     # Â§ç‰Ωç tx rx fifo
#     WriteReg 0x60 0x1e6
#     # ÈáäÊîæ fifo Â§ç‰Ωç
#     WriteReg 0x60 0x186
#     # CMD = c7, Êï¥ÁâáÊì¶Èô§
#     WriteReg 0x68 0xc7
#     # ÈÄâÊã© 0 ÈÄöÈÅìCS
#     WriteReg 0x70 0x00
#     # ‰ΩøËÉΩ master, ÂºÄÂßãÂèëÊï∞ÊçÆ
#     WriteReg 0x60 0x86
#     # ÈÄâÊã© 0 ÈÄöÈÅìCS ÊãâÈ´ò
#     WriteReg 0x70 0x1
#     # Á¶ÅÁî® master
#     WriteReg 0x60 0x186
#     return "Bulk Erase Done!"
# }
# proc PP {address} {
#     WREN
# # ÂÖàÂÜôÂâ? 128 Byte, Âõ†‰∏∫FIFOÊ∑±Â∫¶256, ‰ΩÜÊòØcmd+Âú∞ÂùÄÂç†Áî®4Byte, ÊâÄ‰ª•ÂÆûÈôÖ‰ΩøÁî®‰∏çË∂?256ByteÂè?Áî°ß
#     # Â§ç‰Ωç tx rx fifo
#     WriteReg 0x60 0x1e6
#     # ÈáäÊîæ fifo Â§ç‰Ωç
#     WriteReg 0x60 0x186
#     # CMD = 02, È°µÂÜô
#     WriteReg 0x68 0x02
#     # Write Address
#     WriteReg 0x68 [expr ($address >> 16)]
#     WriteReg 0x68 [expr ($address % (2**16)) >> 8]
#     WriteReg 0x68 [expr ($address % (2**8))]
#     # Write Data
#     set num 0
#     while {$num < 128} {
#         WriteReg 0x68 $num
#         incr num 1
#     }
#     # ÈÄâÊã© 0 ÈÄöÈÅìCS
#     WriteReg 0x70 0x00
#     # ‰ΩøËÉΩ master, ÂºÄÂßãÂèëÊï∞ÊçÆ
#     WriteReg 0x60 0x86
#     # ÈÄâÊã© 0 ÈÄöÈÅìCS ÊãâÈ´ò
#     WriteReg 0x70 0x1
#     # Á¶ÅÁî® master
#     WriteReg 0x60 0x186
# # ÂÜçÂÜôÂê? 128 Byte
#     WREN
#     set address [expr {$address + 128}]
#     puts [ format 0x%08x $address]
#     # Â§ç‰Ωç tx rx fifo
#     WriteReg 0x60 0x1e6
#     # ÈáäÊîæ fifo Â§ç‰Ωç
#     WriteReg 0x60 0x186
#     # CMD = 02, È°µÂÜô
#     WriteReg 0x68 0x02
#     # Write Address
#     WriteReg 0x68 [expr ($address >> 16)]
#     WriteReg 0x68 [expr ($address % (2**16)) >> 8]
#     WriteReg 0x68 [expr ($address % (2**8))]
#     # Write Data
#     while {$num < 256} {
#         WriteReg 0x68 $num
#         incr num 1
#     }
#     # ÈÄâÊã© 0 ÈÄöÈÅìCS
#     WriteReg 0x70 0x00
#     # ‰ΩøËÉΩ master, ÂºÄÂßãÂèëÊï∞ÊçÆ
#     WriteReg 0x60 0x86
#     # ÈÄâÊã© 0 ÈÄöÈÅìCS ÊãâÈ´ò
#     WriteReg 0x70 0x1
#     # Á¶ÅÁî® master
#     WriteReg 0x60 0x186
#     return "Page Program Done!"
# }
# proc READ {address number} {
#     # Â§ç‰Ωç tx rx fifo
#     WriteReg 0x60 0x1e6
#     # ÈáäÊîæ fifo Â§ç‰Ωç
#     WriteReg 0x60 0x186
#     # CMD = 03, ÊåâÂ≠óËäÇË?ªÊï∞Êç?
#     WriteReg 0x68 0x03
#     # Read Address
#     WriteReg 0x68 [expr ($address >> 16)]
#     WriteReg 0x68 [expr ($address % (2**16)) >> 8]
#     WriteReg 0x68 [expr ($address % (2**8))]
#     # Ë¶ÅË?ªÂ°ËöÂ∞ë‰∏?Êï∞ÊçÆÂ∞±ÂÜôÂá†‰∏™ dummy Êï∞ÊçÆ
#     set num 0
#     while {$num < $number} {
#         WriteReg 0x68 0x00
#         incr num 1
#     }
#     # ÈÄâÊã© 0 ÈÄöÈÅìCS
#     WriteReg 0x70 0x00
#     # ‰ΩøËÉΩ master, ÂºÄÂßãÂèëÊï∞ÊçÆ
#     WriteReg 0x60 0x86
#     # ÈÄâÊã© 0 ÈÄöÈÅìCS ÊãâÈ´ò
#     WriteReg 0x70 0x1
#     # Á¶ÅÁî® master
#     WriteReg 0x60 0x186
# 
#     ######################## ÂÜôÊñá‰ª? ########################
#     set fn "./data.txt"
#     set fid [open $fn w+]
#     set num 0
#     puts $fid "Number   Address   Data"
#     while {$num < $number + 4} {
#         puts $fid [format "%8d %#08x %#2x" ($num-3) ($address + $num - 3) [string range [ReadReg 0x6c] end-1 end]]
#         incr num 1
#     }
#     close $fid
#     puts "Read Done!"
#     # set num 0
#     # set read_data "ReadData is "
#     # while {$num < $number + 4} {
#     #     if {$num >= 4} {
#     #         append read_data [string range [ReadReg 0x6c] end-1 end]
#     #     } else {
#     #         ReadReg 0x6c
#     #     }
#     #     incr num 1
#     # }
#     # return $read_data
# }
READ 0x100 128
expected integer but got "(0-3)"
source C:/Users/hjh09/Desktop/project/spi_test/tcl/flash_test.tcl
# proc RDID {byte_num} {
#     WriteReg 0x40 0xa
#     WriteReg 0x28 0x3fff
#     WriteReg 0x1c 0x80000000
#     # Â§ç‰Ωç tx rx fifo
#     WriteReg 0x60 0x1e6
#     # ÈáäÊîæ fifo Â§ç‰Ωç
#     WriteReg 0x60 0x186
#     # CMD = 9F, ËØ? FLASH ID
#     WriteReg 0x68 0x9f
#     # Ë¶ÅË?ªÂ°ËöÂ∞ë‰∏?Êï∞ÊçÆÂ∞±ÂÜôÂá†‰∏™ dummy Êï∞ÊçÆ
#     set num 0
#     while {$num < $byte_num} {
#         WriteReg 0x68 0x00
#         incr num 1
#     }
#     # ÈÄâÊã© 0 ÈÄöÈÅìCS
#     WriteReg 0x70 0x00
#     # ‰ΩøËÉΩ master, ÂºÄÂßãÂèëÊï∞ÊçÆ
#     WriteReg 0x60 0x86
#     # ÈÄâÊã© 0 ÈÄöÈÅìCS ÊãâÈ´ò
#     WriteReg 0x70 0x1
#     # Á¶ÅÁî® master
#     WriteReg 0x60 0x186
# 
#     set num 0
#     set id_data "RDID is "
#     while {$num < $byte_num + 1} {
#         if {$num >= 1} {
#             append id_data [string range [ReadReg 0x6c] end-1 end]
